<Qucs Dataset 0.0.17>
<indep frequency 300>
  +1.00000000000e+000
  +1.04728983824e+000
  +1.09681600527e+000
  +1.14868425674e+000
  +1.20300534942e+000
  +1.25989527780e+000
  +1.31947552168e+000
  +1.38187330565e+000
  +1.44722187074e+000
  +1.51566075890e+000
  +1.58733611101e+000
  +1.66240097893e+000
  +1.74101565230e+000
  +1.82334800087e+000
  +1.90957383288e+000
  +1.99987727054e+000
  +2.09445114315e+000
  +2.19349739891e+000
  +2.29722753607e+000
  +2.40586305464e+000
  +2.51963592932e+000
  +2.63878910483e+000
  +2.76357701474e+000
  +2.89426612472e+000
  +3.03113550157e+000
  +3.17447740911e+000
  +3.32459793227e+000
  +3.48181763069e+000
  +3.64647222321e+000
  +3.81891330478e+000
  +3.99950909720e+000
  +4.18864523544e+000
  +4.38672559105e+000
  +4.59417313464e+000
  +4.81143083900e+000
  +5.03896262507e+000
  +5.27725435248e+000
  +5.52681485714e+000
  +5.78817703770e+000
  +6.06189899350e+000
  +6.34856521631e+000
  +6.64878783842e+000
  +6.96320793976e+000
  +7.29249691684e+000
  +7.63735791638e+000
  +7.99852733680e+000
  +8.37677640068e+000
  +8.77291280161e+000
  +9.18778242886e+000
  +9.62227117368e+000
  +1.00773068209e+001
  +1.05538610304e+001
  +1.10529514113e+001
  +1.15756436955e+001
  +1.21230540134e+001
  +1.26963512766e+001
  +1.32967596747e+001
  +1.39255612887e+001
  +1.45840988294e+001
  +1.52737785039e+001
  +1.59960730186e+001
  +1.67525247241e+001
  +1.75447489083e+001
  +1.83744372461e+001
  +1.92433614112e+001
  +2.01533768594e+001
  +2.11064267910e+001
  +2.21045462997e+001
  +2.31498667185e+001
  +2.42446201708e+001
  +2.53911443368e+001
  +2.65918874451e+001
  +2.78494135008e+001
  +2.91664077602e+001
  +3.05456824652e+001
  +3.19901828478e+001
  +3.35029934198e+001
  +3.50873445590e+001
  +3.67466194074e+001
  +3.84843610949e+001
  +4.03042803057e+001
  +4.22102632016e+001
  +4.42063797203e+001
  +4.62968922663e+001
  +4.84862648124e+001
  +5.07791724321e+001
  +5.31805112821e+001
  +5.56954090580e+001
  +5.83292359429e+001
  +6.10876160751e+001
  +6.39764395575e+001
  +6.70018750351e+001
  +7.01703828670e+001
  +7.34887289218e+001
  +7.69639990247e+001
  +8.06036140886e+001
  +8.44153459601e+001
  +8.84073340153e+001
  +9.25881025397e+001
  +9.69665789315e+001
  +1.01552112763e+002
  +1.06354495749e+002
  +1.11383982648e+002
  +1.16651313170e+002
  +1.22167734900e+002
  +1.27945027321e+002
  +1.33995526966e+002
  +1.40332153761e+002
  +1.46968438611e+002
  +1.53918552299e+002
  +1.61197335739e+002
  +1.68820331670e+002
  +1.76803817846e+002
  +1.85164841791e+002
  +1.93921257207e+002
  +2.03091762090e+002
  +2.12695938667e+002
  +2.22754295200e+002
  +2.33288309786e+002
  +2.44320476219e+002
  +2.55874352017e+002
  +2.67974608733e+002
  +2.80647084631e+002
  +2.93918839865e+002
  +3.07818214257e+002
  +3.22374887815e+002
  +3.37619944111e+002
  +3.53585936654e+002
  +3.70306958401e+002
  +3.87818714561e+002
  +4.06158598838e+002
  +4.25365773275e+002
  +4.45481251884e+002
  +4.66547988223e+002
  +4.88610967116e+002
  +5.11717300711e+002
  +5.35916329085e+002
  +5.61259725595e+002
  +5.87801607227e+002
  +6.15598650148e+002
  +6.44710210732e+002
  +6.75198452307e+002
  +7.07128477894e+002
  +7.40568469226e+002
  +7.75589832339e+002
  +8.12267350048e+002
  +8.50679341636e+002
  +8.90907830093e+002
  +9.33038717262e+002
  +9.77161967270e+002
  +1.02337179863e+003
  +1.07176688545e+003
  +1.12245056809e+003
  +1.17553107388e+003
  +1.23112174820e+003
  +1.28934129653e+003
  +1.35031403787e+003
  +1.41417017029e+003
  +1.48104604888e+003
  +1.55108447695e+003
  +1.62443501096e+003
  +1.70125427985e+003
  +1.78170631955e+003
  +1.86596292318e+003
  +1.95420400797e+003
  +2.04661799939e+003
  +2.14340223351e+003
  +2.24476337841e+003
  +2.35091787546e+003
  +2.46209240149e+003
  +2.57852435288e+003
  +2.70046235242e+003
  +2.82816678023e+003
  +2.96191032977e+003
  +3.10197859014e+003
  +3.24867065588e+003
  +3.40229976568e+003
  +3.56319397123e+003
  +3.73169683773e+003
  +3.90816817754e+003
  +4.09298481845e+003
  +4.28654140842e+003
  +4.48925125822e+003
  +4.70154722402e+003
  +4.92388263171e+003
  +5.15673224485e+003
  +5.40059327854e+003
  +5.65598646107e+003
  +5.92345714588e+003
  +6.20357647610e+003
  +6.49694260415e+003
  +6.80418196893e+003
  +7.12595063357e+003
  +7.46293568631e+003
  +7.81585670768e+003
  +8.18546730707e+003
  +8.57255673191e+003
  +8.97795155303e+003
  +9.40251742967e+003
  +9.84716095793e+003
  +1.03128316067e+004
  +1.08005237452e+004
  +1.13112787659e+004
  +1.18461873090e+004
  +1.24063915906e+004
  +1.29930878420e+004
  +1.36075288642e+004
  +1.42510267030e+004
  +1.49249554505e+004
  +1.56307541795e+004
  +1.63699300161e+004
  +1.71440613585e+004
  +1.79548012469e+004
  +1.88038808934e+004
  +1.96931133791e+004
  +2.06243975251e+004
  +2.15997219478e+004
  +2.26211693047e+004
  +2.36909207418e+004
  +2.48112605514e+004
  +2.59845810493e+004
  +2.72133876838e+004
  +2.85003043852e+004
  +2.98480791692e+004
  +3.12595900048e+004
  +3.27378509595e+004
  +3.42860186356e+004
  +3.59073989106e+004
  +3.76054539966e+004
  +3.93838098329e+004
  +4.12462638290e+004
  +4.31967929733e+004
  +4.52395623254e+004
  +4.73789339096e+004
  +4.96194760300e+004
  +5.19659730249e+004
  +5.44234354830e+004
  +5.69971109433e+004
  +5.96924950997e+004
  +6.25153435369e+004
  +6.54716840200e+004
  +6.85678293664e+004
  +7.18103909254e+004
  +7.52062926959e+004
  +7.87627861119e+004
  +8.24874655261e+004
  +8.63882844274e+004
  +9.04735724235e+004
  +9.47520530281e+004
  +9.92328622883e+004
  +1.03925568294e+005
  +1.08840191607e+005
  +1.13987226662e+005
  +1.19377664171e+005
  +1.25023014599e+005
  +1.30935332735e+005
  +1.37127243440e+005
  +1.43611968600e+005
  +1.50403355364e+005
  +1.57515905709e+005
  +1.64964807410e+005
  +1.72765966467e+005
  +1.80936041074e+005
  +1.89492477187e+005
  +1.98453545781e+005
  +2.07838381858e+005
  +2.17667025315e+005
  +2.27960463732e+005
  +2.38740677186e+005
  +2.50030685191e+005
  +2.61854595847e+005
  +2.74237657326e+005
  +2.87206311780e+005
  +3.00788251804e+005
  +3.15012479576e+005
  +3.29909368777e+005
  +3.45510729459e+005
  +3.61849875964e+005
  +3.78961698064e+005
  +3.96882735464e+005
  +4.15651255823e+005
  +4.35307336473e+005
  +4.55892949998e+005
  +4.77452053857e+005
  +5.00030684249e+005
  +5.23677054420e+005
  +5.48441657612e+005
  +5.74377374883e+005
  +6.01539588027e+005
  +6.29986297838e+005
  +6.59778247954e+005
  +6.90979054572e+005
  +7.23655342287e+005
  +7.57876886363e+005
  +7.93716761722e+005
  +8.31251498989e+005
  +8.70561247910e+005
  +9.11729948498e+005
  +9.54845510278e+005
  +1.00000000000e+006
</indep>
<dep dBs12 frequency>
  -5.03708236141e+001
  -5.00903745790e+001
  -4.98179347106e+001
  -4.95537719857e+001
  -4.92981315240e+001
  -4.90512320540e+001
  -4.88132626353e+001
  -4.85843797379e+001
  -4.83647047730e+001
  -4.81543221561e+001
  -4.79532779719e+001
  -4.77615792862e+001
  -4.75791941319e+001
  -4.74060521680e+001
  -4.72420459901e+001
  -4.70870330464e+001
  -4.69408380931e+001
  -4.68032561085e+001
  -4.66740555719e+001
  -4.65529820077e+001
  -4.64397616934e+001
  -4.63341054327e+001
  -4.62357123015e+001
  -4.61442732849e+001
  -4.60594747354e+001
  -4.59810015942e+001
  -4.59085403335e+001
  -4.58417815888e+001
  -4.57804224632e+001
  -4.57241684969e+001
  -4.56727353026e+001
  -4.56258498778e+001
  -4.55832516068e+001
  -4.55446929725e+001
  -4.55099399980e+001
  -4.54787724419e+001
  -4.54509837681e+001
  -4.54263809141e+001
  -4.54047838777e+001
  -4.53860251443e+001
  -4.53699489713e+001
  -4.53564105510e+001
  -4.53452750675e+001
  -4.53364166671e+001
  -4.53297173588e+001
  -4.53250658657e+001
  -4.53223564468e+001
  -4.53214877125e+001
  -4.53223614569e+001
  -4.53248815348e+001
  -4.53289528104e+001
  -4.53344802071e+001
  -4.53413678858e+001
  -4.53495185812e+001
  -4.53588331182e+001
  -4.53692101307e+001
  -4.53805459925e+001
  -4.53927349702e+001
  -4.54056695905e+001
  -4.54192412117e+001
  -4.54333407738e+001
  -4.54478596981e+001
  -4.54626908946e+001
  -4.54777298333e+001
  -4.54928756329e+001
  -4.55080321178e+001
  -4.55231087994e+001
  -4.55380217441e+001
  -4.55526942933e+001
  -4.55670576157e+001
  -4.55810510766e+001
  -4.55946224229e+001
  -4.56077277857e+001
  -4.56203315179e+001
  -4.56324058809e+001
  -4.56439306077e+001
  -4.56548923643e+001
  -4.56652841388e+001
  -4.56751045804e+001
  -4.56843573152e+001
  -4.56930502569e+001
  -4.57011949320e+001
  -4.57088058329e+001
  -4.57158998102e+001
  -4.57224955120e+001
  -4.57286128741e+001
  -4.57342726654e+001
  -4.57394960861e+001
  -4.57443044198e+001
  -4.57487187347e+001
  -4.57527596320e+001
  -4.57564470363e+001
  -4.57598000233e+001
  -4.57628366821e+001
  -4.57655740047e+001
  -4.57680278008e+001
  -4.57702126325e+001
  -4.57721417653e+001
  -4.57738271321e+001
  -4.57752793068e+001
  -4.57765074854e+001
  -4.57775194705e+001
  -4.57783216586e+001
  -4.57789190274e+001
  -4.57793151217e+001
  -4.57795120358e+001
  -4.57795103918e+001
  -4.57793093117e+001
  -4.57789063831e+001
  -4.57782976167e+001
  -4.57774773949e+001
  -4.57764384107e+001
  -4.57751715959e+001
  -4.57736660379e+001
  -4.57719088835e+001
  -4.57698852298e+001
  -4.57675780012e+001
  -4.57649678104e+001
  -4.57620328041e+001
  -4.57587484914e+001
  -4.57550875539e+001
  -4.57510196377e+001
  -4.57465111241e+001
  -4.57415248808e+001
  -4.57360199901e+001
  -4.57299514545e+001
  -4.57232698796e+001
  -4.57159211315e+001
  -4.57078459700e+001
  -4.56989796570e+001
  -4.56892515394e+001
  -4.56785846078e+001
  -4.56668950310e+001
  -4.56540916682e+001
  -4.56400755617e+001
  -4.56247394110e+001
  -4.56079670346e+001
  -4.55896328227e+001
  -4.55696011883e+001
  -4.55477260235e+001
  -4.55238501713e+001
  -4.54978049234e+001
  -4.54694095578e+001
  -4.54384709315e+001
  -4.54047831449e+001
  -4.53681272990e+001
  -4.53282713665e+001
  -4.52849701999e+001
  -4.52379657034e+001
  -4.51869871945e+001
  -4.51317519813e+001
  -4.50719661841e+001
  -4.50073258241e+001
  -4.49375182032e+001
  -4.48622235912e+001
  -4.47811172327e+001
  -4.46938716772e+001
  -4.46001594272e+001
  -4.44996558864e+001
  -4.43920425778e+001
  -4.42770105910e+001
  -4.41542641987e+001
  -4.40235245748e+001
  -4.38845335299e+001
  -4.37370571748e+001
  -4.35808894115e+001
  -4.34158551535e+001
  -4.32418131754e+001
  -4.30586585017e+001
  -4.28663242551e+001
  -4.26647829025e+001
  -4.24540468554e+001
  -4.22341684064e+001
  -4.20052390045e+001
  -4.17673878990e+001
  -4.15207802018e+001
  -4.12656144360e+001
  -4.10021196578e+001
  -4.07305522441e+001
  -4.04511924480e+001
  -4.01643408215e+001
  -3.98703146045e+001
  -3.95694441683e+001
  -3.92620695936e+001
  -3.89485374494e+001
  -3.86291978263e+001
  -3.83044016639e+001
  -3.79744983987e+001
  -3.76398339467e+001
  -3.73007490237e+001
  -3.69575777996e+001
  -3.66106468717e+001
  -3.62602745410e+001
  -3.59067703670e+001
  -3.55504349793e+001
  -3.51915601178e+001
  -3.48304288756e+001
  -3.44673161215e+001
  -3.41024890742e+001
  -3.37362080082e+001
  -3.33687270682e+001
  -3.30002951731e+001
  -3.26311569923e+001
  -3.22615539766e+001
  -3.18917254293e+001
  -3.15219096036e+001
  -3.11523448120e+001
  -3.07832705350e+001
  -3.04149285167e+001
  -3.00475638318e+001
  -2.96814259118e+001
  -2.93167695141e+001
  -2.89538556174e+001
  -2.85929522254e+001
  -2.82343350596e+001
  -2.78782881190e+001
  -2.75251040831e+001
  -2.71750845360e+001
  -2.68285399824e+001
  -2.64857896331e+001
  -2.61471609312e+001
  -2.58129887969e+001
  -2.54836145678e+001
  -2.51593846170e+001
  -2.48406486383e+001
  -2.45277575924e+001
  -2.42210613191e+001
  -2.39209058323e+001
  -2.36276303233e+001
  -2.33415639159e+001
  -2.30630222264e+001
  -2.27923037969e+001
  -2.25296864833e+001
  -2.22754238880e+001
  -2.20297419346e+001
  -2.17928356869e+001
  -2.15648665113e+001
  -2.13459596769e+001
  -2.11362024768e+001
  -2.09356429369e+001
  -2.07442891613e+001
  -2.05621093394e+001
  -2.03890324168e+001
  -2.02249494075e+001
  -2.00697153032e+001
  -1.99231515153e+001
  -1.97850487679e+001
  -1.96551703517e+001
  -1.95332556379e+001
  -1.94190237530e+001
  -1.93121773170e+001
  -1.92124061529e+001
  -1.91193908885e+001
  -1.90328063801e+001
  -1.89523249034e+001
  -1.88776190699e+001
  -1.88083644404e+001
  -1.87442418199e+001
  -1.86849392288e+001
  -1.86301535556e+001
  -1.85795919027e+001
  -1.85329726448e+001
  -1.84900262210e+001
  -1.84504956864e+001
  -1.84141370499e+001
  -1.83807194256e+001
  -1.83500250227e+001
  -1.83218490009e+001
  -1.82959992138e+001
  -1.82722958621e+001
  -1.82505710761e+001
  -1.82306684452e+001
  -1.82124425078e+001
  -1.81957582174e+001
  -1.81804903932e+001
  -1.81665231657e+001
  -1.81537494246e+001
  -1.81420702759e+001
  -1.81313945113e+001
  -1.81216380954e+001
  -1.81127236724e+001
  -1.81045800948e+001
  -1.80971419753e+001
  -1.80903492620e+001
  -1.80841468388e+001
  -1.80784841487e+001
  -1.80733148414e+001
  -1.80685964441e+001
  -1.80642900544e+001
  -1.80603600541e+001
  -1.80567738447e+001
  -1.80535016006e+001
  -1.80505160426e+001
  -1.80477922265e+001
  -1.80453073498e+001
  -1.80430405724e+001
  -1.80409728517e+001
  -1.80390867911e+001
  -1.80373665007e+001
  -1.80357974685e+001
</dep>
<dep dBs11 frequency>
  -3.74382263183e+000
  -3.76446713859e+000
  -3.78589128070e+000
  -3.80805184124e+000
  -3.83089532790e+000
  -3.85435818836e+000
  -3.87836728597e+000
  -3.90284064274e+000
  -3.92768844431e+000
  -3.95281428885e+000
  -3.97811664835e+000
  -4.00349049941e+000
  -4.02882907005e+000
  -4.05402564276e+000
  -4.07897534969e+000
  -4.10357689697e+000
  -4.12773415879e+000
  -4.15135758973e+000
  -4.17436541413e+000
  -4.19668456367e+000
  -4.21825134722e+000
  -4.23901185040e+000
  -4.25892207388e+000
  -4.27794783013e+000
  -4.29606442602e+000
  -4.31325616462e+000
  -4.32951570233e+000
  -4.34484329876e+000
  -4.35924599531e+000
  -4.37273675618e+000
  -4.38533360132e+000
  -4.39705875709e+000
  -4.40793784492e+000
  -4.41799912431e+000
  -4.42727280153e+000
  -4.43579041175e+000
  -4.44358427861e+000
  -4.45068705242e+000
  -4.45713132583e+000
  -4.46294932399e+000
  -4.46817266462e+000
  -4.47283218264e+000
  -4.47695781324e+000
  -4.48057852656e+000
  -4.48372230712e+000
  -4.48641617093e+000
  -4.48868621280e+000
  -4.49055767677e+000
  -4.49205504236e+000
  -4.49320211953e+000
  -4.49402214550e+000
  -4.49453787699e+000
  -4.49477167179e+000
  -4.49474555464e+000
  -4.49448126292e+000
  -4.49400026911e+000
  -4.49332377804e+000
  -4.49247269853e+000
  -4.49146759036e+000
  -4.49032858900e+000
  -4.48907531192e+000
  -4.48772675116e+000
  -4.48630115779e+000
  -4.48481592435e+000
  -4.48328747109e+000
  -4.48173114193e+000
  -4.48016111481e+000
  -4.47859033062e+000
  -4.47703044339e+000
  -4.47549179339e+000
  -4.47398340336e+000
  -4.47251299709e+000
  -4.47108703869e+000
  -4.46971078982e+000
  -4.46838838191e+000
  -4.46712290017e+000
  -4.46591647574e+000
  -4.46477038291e+000
  -4.46368513834e+000
  -4.46266059954e+000
  -4.46169606051e+000
  -4.46079034265e+000
  -4.45994187969e+000
  -4.45914879572e+000
  -4.45840897559e+000
  -4.45772012778e+000
  -4.45707983945e+000
  -4.45648562409e+000
  -4.45593496211e+000
  -4.45542533490e+000
  -4.45495425282e+000
  -4.45451927789e+000
  -4.45411804166e+000
  -4.45374825887e+000
  -4.45340773750e+000
  -4.45309438574e+000
  -4.45280621636e+000
  -4.45254134881e+000
  -4.45229800969e+000
  -4.45207453165e+000
  -4.45186935116e+000
  -4.45168100548e+000
  -4.45150812881e+000
  -4.45134944808e+000
  -4.45120377834e+000
  -4.45107001789e+000
  -4.45094714343e+000
  -4.45083420499e+000
  -4.45073032108e+000
  -4.45063467380e+000
  -4.45054650409e+000
  -4.45046510715e+000
  -4.45038982798e+000
  -4.45032005711e+000
  -4.45025522654e+000
  -4.45019480578e+000
  -4.45013829809e+000
  -4.45008523691e+000
  -4.45003518241e+000
  -4.44998771817e+000
  -4.44994244802e+000
  -4.44989899297e+000
  -4.44985698821e+000
  -4.44981608025e+000
  -4.44977592405e+000
  -4.44973618026e+000
  -4.44969651240e+000
  -4.44965658414e+000
  -4.44961605651e+000
  -4.44957458503e+000
  -4.44953181691e+000
  -4.44948738801e+000
  -4.44944091983e+000
  -4.44939201630e+000
  -4.44934026040e+000
  -4.44928521069e+000
  -4.44922639750e+000
  -4.44916331900e+000
  -4.44909543689e+000
  -4.44902217187e+000
  -4.44894289868e+000
  -4.44885694080e+000
  -4.44876356471e+000
  -4.44866197365e+000
  -4.44855130085e+000
  -4.44843060218e+000
  -4.44829884813e+000
  -4.44815491507e+000
  -4.44799757577e+000
  -4.44782548894e+000
  -4.44763718796e+000
  -4.44743106840e+000
  -4.44720537455e+000
  -4.44695818457e+000
  -4.44668739431e+000
  -4.44639069960e+000
  -4.44606557693e+000
  -4.44570926227e+000
  -4.44531872795e+000
  -4.44489065738e+000
  -4.44442141740e+000
  -4.44390702813e+000
  -4.44334312994e+000
  -4.44272494743e+000
  -4.44204725016e+000
  -4.44130430964e+000
  -4.44048985262e+000
  -4.43959700995e+000
  -4.43861826104e+000
  -4.43754537325e+000
  -4.43636933601e+000
  -4.43508028913e+000
  -4.43366744495e+000
  -4.43211900384e+000
  -4.43042206256e+000
  -4.42856251501e+000
  -4.42652494497e+000
  -4.42429251011e+000
  -4.42184681712e+000
  -4.41916778717e+000
  -4.41623351150e+000
  -4.41302009666e+000
  -4.40950149911e+000
  -4.40564934900e+000
  -4.40143276298e+000
  -4.39681814618e+000
  -4.39176898360e+000
  -4.38624562152e+000
  -4.38020503961e+000
  -4.37360061523e+000
  -4.36638188135e+000
  -4.35849428056e+000
  -4.34987891780e+000
  -4.34047231576e+000
  -4.33020617712e+000
  -4.31900715944e+000
  -4.30679666903e+000
  -4.29349068195e+000
  -4.27899960121e+000
  -4.26322816089e+000
  -4.24607538970e+000
  -4.22743464766e+000
  -4.20719375159e+000
  -4.18523520649e+000
  -4.16143656123e+000
  -4.13567090808e+000
  -4.10780754636e+000
  -4.07771283029e+000
  -4.04525122067e+000
  -4.01028655805e+000
  -3.97268357221e+000
  -3.93230963823e+000
  -3.88903678373e+000
  -3.84274394382e+000
  -3.79331945098e+000
  -3.74066373582e+000
  -3.68469220187e+000
  -3.62533822370e+000
  -3.56255620310e+000
  -3.49632460378e+000
  -3.42664887149e+000
  -3.35356413572e+000
  -3.27713758084e+000
  -3.19747037133e+000
  -3.11469901755e+000
  -3.02899607680e+000
  -2.94057009918e+000
  -2.84966474900e+000
  -2.75655706024e+000
  -2.66155481689e+000
  -2.56499308475e+000
  -2.46722995863e+000
  -2.36864162500e+000
  -2.26961687320e+000
  -2.17055121560e+000
  -2.07184079671e+000
  -1.97387628259e+000
  -1.87703692219e+000
  -1.78168496402e+000
  -1.68816059333e+000
  -1.59677752878e+000
  -1.50781938608e+000
  -1.42153688004e+000
  -1.33814589919e+000
  -1.25782645113e+000
  -1.18072244325e+000
  -1.10694223492e+000
  -1.03655987443e+000
  -9.69616918082e-001
  -9.06124718807e-001
  -8.46067069085e-001
  -7.89403084899e-001
  -7.36070224804e-001
  -6.85987348649e-001
  -6.39057733491e-001
  -5.95171978440e-001
  -5.54210744742e-001
  -5.16047291505e-001
  -4.80549780469e-001
  -4.47583334850e-001
  -4.17011847082e-001
  -3.88699538450e-001
  -3.62512279876e-001
  -3.38318687876e-001
  -3.15991012899e-001
  -2.95405839284e-001
  -2.76444616973e-001
  -2.58994045224e-001
  -2.42946328062e-001
  -2.28199320149e-001
  -2.14656580476e-001
  -2.02227349755e-001
  -1.90826465769e-001
  -1.80374229329e-001
  -1.70796231887e-001
  -1.62023154364e-001
  -1.53990545329e-001
  -1.46638585413e-001
  -1.39911843669e-001
  -1.33759030578e-001
  -1.28132751512e-001
  -1.22989263678e-001
  -1.18288238911e-001
  -1.13992534104e-001
  -1.10067970606e-001
  -1.06483123510e-001
  -1.03209121424e-001
  -1.00219457056e-001
  -9.74898087340e-002
  -9.49978727996e-002
  -9.27232066911e-002
  -9.06470824235e-002
  -8.87523501025e-002
  -8.70233110527e-002
  -8.54456001030e-002
  -8.40060765539e-002
  -8.26927233377e-002
  -8.14945538820e-002
  -8.04015261926e-002
  -7.94044636841e-002
</dep>
<dep dBs21 frequency>
  -5.15661296096e+000
  -4.87523521150e+000
  -4.60184154059e+000
