<Qucs Dataset 0.0.17>
<indep frequency 200>
  +1.00000000000e+006
  +1.02341140211e+006
  +1.04737089796e+006
  +1.07189131921e+006
  +1.09698579789e+006
  +1.12266777351e+006
  +1.14895100019e+006
  +1.17584955405e+006
  +1.20337784078e+006
  +1.23155060329e+006
  +1.26038292968e+006
  +1.28989026125e+006
  +1.32008840083e+006
  +1.35099352120e+006
  +1.38262217376e+006
  +1.41499129743e+006
  +1.44811822767e+006
  +1.48202070580e+006
  +1.51671688847e+006
  +1.55222535743e+006
  +1.58856512943e+006
  +1.62575566644e+006
  +1.66381688608e+006
  +1.70276917223e+006
  +1.74263338601e+006
  +1.78343087693e+006
  +1.82518349432e+006
  +1.86791359902e+006
  +1.91164407539e+006
  +1.95639834352e+006
  +2.00220037182e+006
  +2.04907468982e+006
  +2.09704640132e+006
  +2.14614119786e+006
  +2.19638537242e+006
  +2.24780583355e+006
  +2.30043011977e+006
  +2.35428641432e+006
  +2.40940356024e+006
  +2.46581107582e+006
  +2.52353917043e+006
  +2.58261876068e+006
  +2.64308148697e+006
  +2.70495973046e+006
  +2.76828663039e+006
  +2.83309610184e+006
  +2.89942285388e+006
  +2.96730240819e+006
  +3.03677111804e+006
  +3.10786618778e+006
  +3.18062569279e+006
  +3.25508859984e+006
  +3.33129478793e+006
  +3.40928506975e+006
  +3.48910121341e+006
  +3.57078596490e+006
  +3.65438307096e+006
  +3.73993730248e+006
  +3.82749447852e+006
  +3.91710149081e+006
  +4.00880632890e+006
  +4.10265810583e+006
  +4.19870708444e+006
  +4.29700470432e+006
  +4.39760360930e+006
  +4.50055767570e+006
  +4.60592204115e+006
  +4.71375313412e+006
  +4.82410870417e+006
  +4.93704785284e+006
  +5.05263106534e+006
  +5.17092024290e+006
  +5.29197873596e+006
  +5.41587137808e+006
  +5.54266452066e+006
  +5.67242606849e+006
  +5.80522551609e+006
  +5.94113398497e+006
  +6.08022426165e+006
  +6.22257083673e+006
  +6.36824994472e+006
  +6.51733960488e+006
  +6.66991966303e+006
  +6.82607183427e+006
  +6.98587974679e+006
  +7.14942898660e+006
  +7.31680714343e+006
  +7.48810385759e+006
  +7.66341086801e+006
  +7.84282206134e+006
  +8.02643352226e+006
  +8.21434358492e+006
  +8.40665288562e+006
  +8.60346441668e+006
  +8.80488358164e+006
  +9.01101825167e+006
  +9.22197882333e+006
  +9.43787827778e+006
  +9.65883224116e+006
  +9.88495904663e+006
  +1.01163797977e+007
  +1.03532184330e+007
  +1.05956017928e+007
  +1.08436596869e+007
  +1.10975249641e+007
  +1.13573335834e+007
  +1.16232246868e+007
  +1.18953406737e+007
  +1.21738272774e+007
  +1.24588336430e+007
  +1.27505124071e+007
  +1.30490197801e+007
  +1.33545156293e+007
  +1.36671635646e+007
  +1.39871310265e+007
  +1.43145893752e+007
  +1.46497139831e+007
  +1.49926843279e+007
  +1.53436840893e+007
  +1.57029012473e+007
  +1.60705281826e+007
  +1.64467617799e+007
  +1.68318035333e+007
  +1.72258596540e+007
  +1.76291411810e+007
  +1.80418640939e+007
  +1.84642494290e+007
  +1.88965233969e+007
  +1.93389175046e+007
  +1.97916686785e+007
  +2.02550193923e+007
  +2.07292177960e+007
  +2.12145178491e+007
  +2.17111794569e+007
  +2.22194686094e+007
  +2.27396575236e+007
  +2.32720247896e+007
  +2.38168555198e+007
  +2.43744415012e+007
  +2.49450813523e+007
  +2.55290806824e+007
  +2.61267522556e+007
  +2.67384161584e+007
  +2.73643999707e+007
  +2.80050389418e+007
  +2.86606761695e+007
  +2.93316627839e+007
  +3.00183581358e+007
  +3.07211299886e+007
  +3.14403547159e+007
  +3.21764175025e+007
  +3.29297125510e+007
  +3.37006432927e+007
  +3.44896226041e+007
  +3.52970730273e+007
  +3.61234269971e+007
  +3.69691270720e+007
  +3.78346261713e+007
  +3.87203878181e+007
  +3.96268863870e+007
  +4.05546073584e+007
  +4.15040475785e+007
  +4.24757155254e+007
  +4.34701315813e+007
  +4.44878283113e+007
  +4.55293507487e+007
  +4.65952566866e+007
  +4.76861169771e+007
  +4.88025158365e+007
  +4.99450511586e+007
  +5.11143348344e+007
  +5.23109930806e+007
  +5.35356667741e+007
  +5.47890117959e+007
  +5.60716993821e+007
  +5.73844164830e+007
  +5.87278661319e+007
  +6.01027678207e+007
  +6.15098578858e+007
  +6.29498899022e+007
  +6.44236350872e+007
  +6.59318827133e+007
  +6.74754405311e+007
  +6.90551352016e+007
  +7.06718127393e+007
  +7.23263389648e+007
  +7.40195999692e+007
  +7.57525025877e+007
  +7.75259748863e+007
  +7.93409666580e+007
  +8.11984499318e+007
  +8.30994194935e+007
  +8.50448934180e+007
  +8.70359136149e+007
  +8.90735463861e+007
  +9.11588829975e+007
  +9.32930402628e+007
  +9.54771611421e+007
  +9.77124153535e+007
  +1.00000000000e+008
</indep>
<dep dBS11 frequency>
  -5.97294673166e+001
  -5.91384243906e+001
  -5.85468555310e+001
  -5.79547832180e+001
  -5.73622290304e+001
  -5.67692136776e+001
  -5.61757570305e+001
  -5.55818781521e+001
  -5.49875953278e+001
  -5.43929260942e+001
  -5.37978872678e+001
  -5.32024949730e+001
  -5.26067646690e+001
  -5.20107111772e+001
  -5.14143487062e+001
  -5.08176908778e+001
  -5.02207507519e+001
  -4.96235408503e+001
  -4.90260731808e+001
  -4.84283592608e+001
  -4.78304101397e+001
  -4.72322364220e+001
  -4.66338482895e+001
  -4.60352555236e+001
  -4.54364675275e+001
  -4.48374933482e+001
  -4.42383416986e+001
  -4.36390209808e+001
  -4.30395393082e+001
  -4.24399045295e+001
  -4.18401242531e+001
  -4.12402058719e+001
  -4.06401565905e+001
  -4.00399834526e+001
  -3.94396933712e+001
  -3.88392931606e+001
  -3.82387895708e+001
  -3.76381893253e+001
  -3.70374991626e+001
  -3.64367258810e+001
  -3.58358763898e+001
  -3.52349577646e+001
  -3.46339773107e+001
  -3.40329426329e+001
  -3.34318617147e+001
  -3.28307430082e+001
  -3.22295955349e+001
  -3.16284290007e+001
  -3.10272539262e+001
  -3.04260817950e+001
  -2.98249252230e+001
  -2.92237981508e+001
  -2.86227160636e+001
  -2.80216962421e+001
  -2.74207580488e+001
  -2.68199232555e+001
  -2.62192164164e+001
  -2.56186652951e+001
  -2.50183013512e+001
  -2.44181602963e+001
  -2.38182827274e+001
  -2.32187148488e+001
  -2.26195092944e+001
  -2.20207260624e+001
  -2.14224335763e+001
  -2.08247098892e+001
  -2.02276440449e+001
  -1.96313376164e+001
  -1.90359064372e+001
  -1.84414825459e+001
  -1.78482163609e+001
  -1.72562791028e+001
  -1.66658654798e+001
  -1.60771966444e+001
  -1.54905234289e+001
  -1.49061298528e+001
  -1.43243368863e+001
  -1.37455064366e+001
  -1.31700455024e+001
  -1.25984104133e+001
  -1.20311110394e+001
  -1.14687148133e+001
  -1.09118503614e+001
  -1.03612104872e+001
  -9.81755419478e+000
  -9.28170738328e+000
  -8.75456179819e+000
  -8.23707178781e+000
  -7.73024840764e+000
  -7.23515044368e+000
  -6.75287200491e+000
  -6.28452647489e+000
  -5.83122681949e+000
  -5.39406251926e+000
  -4.97407371875e+000
  -4.57222353315e+000
  -4.18936978609e+000
  -3.82623771997e+000
  -3.48339537093e+000
  -3.16123329042e+000
  -2.85995010063e+000
  -2.57954499603e+000
  -2.31981778558e+000
  -2.08037647191e+000
  -1.86065176736e+000
  -1.65991742926e+000
  -1.47731492426e+000
  -1.31188073860e+000
  -1.16257464317e+000
  -1.02830737408e+000
  -9.07966458690e-001
  -8.00439250149e-001
  -7.04632582129e-001
  -6.19488778286e-001
  -5.43998022293e-001
  -4.77207300222e-001
  -4.18226266216e-001
  -3.66230460887e-001
  -3.20462340619e-001
  -2.80230567355e-001
  -2.44907974682e-001
  -2.13928577403e-001
  -1.86783936550e-001
  -1.63019135901e-001
  -1.42228573359e-001
  -1.24051723430e-001
  -1.08168986462e-001
  -9.42977065494e-002
  -8.21884126919e-002
  -7.16213163176e-002
  -6.24030817799e-002
  -5.43638741784e-002
  -4.73546799969e-002
  -4.12448899321e-002
  -3.59201292870e-002
  -3.12803189272e-002
  -2.72379486246e-002
  -2.37165443244e-002
  -2.06493111882e-002
  -1.79779350148e-002
  -1.56515256423e-002
  -1.36256870982e-002
  -1.18617004949e-002
  -1.03258069111e-002
  -8.98857871583e-003
  -7.82436895025e-003
  -6.81082947305e-003
  -5.92848958295e-003
  -5.16038775577e-003
  -4.49174997426e-003
  -3.90970888652e-003
  -3.40305871034e-003
  -2.96204140886e-003
  -2.57816020477e-003
  -2.24401698097e-003
  -1.95317054083e-003
  -1.70001307694e-003
  -1.47966252796e-003
  -1.28786879439e-003
  -1.12093203979e-003
  -9.75631528210e-004
  -8.49163645258e-004
  -7.39087922355e-004
  -6.43280034336e-004
  -5.59890872125e-004
  -4.87310907406e-004
  -4.24139166492e-004
  -3.69156218466e-004
  -3.21300659095e-004
  -2.79648638712e-004
  -2.43396040709e-004
  -2.11842967662e-004
  -1.84380236736e-004
  -1.60477624268e-004
  -1.39673633167e-004
  -1.21566585984e-004
  -1.05806872029e-004
  -9.20901990257e-005
  -8.01517192747e-005
  -6.97609169902e-005
  -6.07171582020e-005
  -5.28458174278e-005
  -4.59949063463e-005
  -4.00321394142e-005
  -3.48423798559e-005
  -3.03254166535e-005
  -2.63940297244e-005
  -2.29723058735e-005
  -1.99941730486e-005
  -1.74021246043e-005
  -1.51461089063e-005
  -1.31825629243e-005
  -1.14735710564e-005
  -9.98613302978e-006
  -8.69152667083e-006
  -7.56475333473e-006
  -6.58405517308e-006
  -5.73049500748e-006
  -4.98759066628e-006
  -4.34099671787e-006
</dep>
<dep dBS21 frequency>
  -4.62208375313e-006
  -5.29592879272e-006
  -6.06874740890e-006
  -6.95514738123e-006
  -7.97189935135e-006
  -9.13825768937e-006
  -1.04763290844e-005
  -1.20114958819e-005
  -1.37729023147e-005
  -1.57940130167e-005
  -1.81132545403e-005
  -2.07747522244e-005
  -2.38291765983e-005
  -2.73347156366e-005
  -3.13581915476e-005
  -3.59763435972e-005
  -4.12773017294e-005
  -4.73622792831e-005
  -5.43475174427e-005
  -6.23665188652e-005
  -7.15726135061e-005
  -8.21419060571e-005
  -9.42766617558e-005
  -1.08209195794e-004
  -1.24206341224e-004
  -1.42574581409e-004
  -1.63665945859e-004
  -1.87884782957e-004
  -2.15695540029e-004
  -2.47631700436e-004
  -2.84306049799e-004
  -3.26422468810e-004
  -3.74789479526e-004
  -4.30335805690e-004
  -4.94128246058e-004
  -5.67392204353e-004
  -6.51535269901e-004
  -7.48174301661e-004
  -8.59166534966e-004
  -9.86645307082e-004
  -1.13306108550e-003
  -1.30122858343e-003
  -1.49438086220e-003
  -1.71623145234e-003
  -1.97104567543e-003
  -2.26372252191e-003
  -2.59988863610e-003
  -2.98600618518e-003
  -3.42949664418e-003
  -3.93888282110e-003
  -4.52395177732e-003
  -5.19594167469e-003
  -5.96775600654e-003
  -6.85420915119e-003
  -7.87230772885e-003
  -9.04157285213e-003
  -1.03844090419e-002
  -1.19265263394e-002
  -1.36974229873e-002
  -1.57309369755e-002
  -1.80658757594e-002
  -2.07467345461e-002
  -2.38245147056e-002
  -2.73576550802e-002
  -3.14130902069e-002
  -3.60674507019e-002
  -4.14084222119e-002
  -4.75362803438e-002
  -5.45656197226e-002
  -6.26272956452e-002
  -7.18705964949e-002
  -8.24656639019e-002
  -9.46061752393e-002
  -1.08512299029e-001
  -1.24433927678e-001
  -1.42654183095e-001
  -1.63493178396e-001
  -1.87312002415e-001
  -2.14516872135e-001
  -2.45563370835e-001
  -2.80960655845e-001
  -3.21275479239e-001
  -3.67135817521e-001
  -4.19233853670e-001
  -4.78327998965e-001
  -5.45243586819e-001
  -6.20871822363e-001
  -7.06166537921e-001
  -8.02138296316e-001
  -9.09845413122e-001
  -1.03038154809e+000
  -1.16485965586e+000
  -1.31439229272e+000
  -1.48006854816e+000
  -1.66292819328e+000
  -1.86393398672e+000
  -2.08394341166e+000
  -2.32368138540e+000
  -2.58371563369e+000
  -2.86443641158e+000
  -3.16604205827e+000
  -3.48853149804e+000
  -3.83170428180e+000
  -4.19516816586e+000
  -4.57835362734e+000
  -4.98053419896e+000
  -5.40085113293e+000
  -5.83834071075e+000
  -6.29196250778e+000
  -6.76062707349e+000
  -7.24322175698e+000
  -7.73863374124e+000
  -8.24576969745e+000
  -8.76357179412e+000
  -9.29103006679e+000
  -9.82719136011e+000
  -1.03711651932e+001
  -1.09221269776e+001
  -1.14793190468e+001
  -1.20420499450e+001
  -1.26096923937e+001
  -1.31816803004e+001
  -1.37575051240e+001
  -1.43367118505e+001
  -1.49188947844e+001
  -1.55036933114e+001
  -1.60907877466e+001
  -1.66798953530e+001
  -1.72707665822e+001
  -1.78631815714e+001
  -1.84569469144e+001
  -1.90518927089e+001
  -1.96478698768e+001
  -2.02447477474e+001
  -2.08424118873e+001
  -2.14407621612e+001
  -2.20397110055e+001
  -2.26391818948e+001
  -2.32391079857e+001
  -2.38394309172e+001
  -2.44400997548e+001
  -2.50410700600e+001
  -2.56423030733e+001
  -2.62437649972e+001
  -2.68454263669e+001
  -2.74472615003e+001
  -2.80492480155e+001
  -2.86513664096e+001
  -2.92535996904e+001
  -2.98559330545e+001
  -3.04583536066e+001
  -3.10608501142e+001
  -3.16634127936e+001
  -3.22660331237e+001
  -3.28687036832e+001
  -3.34714180086e+001
  -3.40741704708e+001
  -3.46769561677e+001
  -3.52797708296e+001
  -3.58826107384e+001
  -3.64854726557e+001
  -3.70883537609e+001
  -3.76912515977e+001
  -3.82941640262e+001
  -3.88970891827e+001
  -3.95000254438e+001
  -4.01029713951e+001
  -4.07059258043e+001
  -4.13088875980e+001
  -4.19118558407e+001
  -4.25148297171e+001
  -4.31178085167e+001
  -4.37207916203e+001
  -4.43237784879e+001
  -4.49267686488e+001
  -4.55297616926e+001
  -4.61327572612e+001
  -4.67357550424e+001
  -4.73387547635e+001
  -4.79417561868e+001
  -4.85447591047e+001
  -4.91477633358e+001
  -4.97507687218e+001
  -5.03537751243e+001
  -5.09567824224e+001
  -5.15597905103e+001
  -5.21627992955e+001
  -5.27658086971e+001
  -5.33688186441e+001
  -5.39718290745e+001
  -5.45748399337e+001
  -5.51778511741e+001
  -5.57808627537e+001
  -5.63838746356e+001
  -5.69868867875e+001
  -5.75898991809e+001
  -5.81929117908e+001
  -5.87959245949e+001
  -5.93989375738e+001
  -6.00019507103e+001
</dep>
<dep S[1,1] frequency>
  +2.05321297087e-004+j1.01099788009e-003
  +2.24870745339e-004+j1.08114063535e-003
  +2.46293690640e-004+j1.15616572026e-003
  +2.69769980254e-004+j1.23640800040e-003
  +2.95496698546e-004+j1.32222451843e-003
  +3.23689811417e-004+j1.41399585747e-003
  +3.54585966312e-004+j1.51212757421e-003
  +3.88444462291e-004+j1.61705170321e-003
  +4.25549405997e-004+j1.72922833356e-003
  +4.66212070772e-004+j1.84914725891e-003
  +5.10773477752e-004+j1.97732970088e-003
  +5.59607219436e-004+j2.11433010592e-003
  +6.13122548082e-004+j2.26073801439e-003
  +6.71767753262e-004+j2.41718000019e-003
  +7.36033855063e-004+j2.58432167815e-003
  +8.06458641750e-004+j2.76286977509e-003
  +8.83631083250e-004+j2.95357425930e-003
  +9.68196154499e-004+j3.15723052142e-003
  +1.06086010568e-003+j3.37468159784e-003
  +1.16239621951e-003+j3.60682042556e-003
  +1.27365109916e-003+j3.85459211490e-003
  +1.39555153406e-003+j4.11899622350e-003
  +1.52911199472e-003+j4.40108901158e-003
  +1.67544281199e-003+j4.70198565461e-003
  +1.83575910057e-003+j5.02286238477e-003
  +2.01139049144e-003+j5.36495852770e-003
  +2.20379174289e-003+j5.72957839472e-003
  +2.41455430533e-003+j6.11809298394e-003
  +2.64541892051e-003+j6.53194143587e-003
  +2.89828934199e-003+j6.97263217999e-003
  +3.17524726981e-003+j7.44174369844e-003
  +3.47856859858e-003+j7.94092482119e-003
  +3.81074108529e-003+j8.47189445357e-003
  +4.17448354944e-003+j9.03644062172e-003
  +4.57276672520e-003+j9.63641870369e-003
  +5.00883589214e-003+j1.02737486944e-002
  +5.48623541738e-003+j1.09504113293e-002
  +6.00883534847e-003+j1.16684428663e-002
  +6.58086020198e-003+j1.24299282958e-002
  +7.20692009731e-003+j1.32369927142e-002
  +7.89204438890e-003+j1.40917905607e-002
  +8.64171795206e-003+j1.49964923712e-002
  +9.46192027688e-003+j1.59532686560e-002
  +1.03591675218e-002+j1.69642704523e-002
  +1.13405576710e-002+j1.80316060390e-002
  +1.24138189284e-002+j1.91573132325e-002
  +1.35873614623e-002+j2.03433265995e-002
  +1.48703325897e-002+j2.15914388357e-002
  +1.62726754546e-002+j2.29032554578e-002
  +1.78051912045e-002+j2.42801418404e-002
  +1.94796046112e-002+j2.57231615083e-002
  +2.13086329981e-002+j2.72330044491e-002
  +2.33060582341e-002+j2.88099040584e-002
  +2.54868014231e-002+j3.04535411571e-002
  +2.78669997527e-002+j3.21629333342e-002
  +3.04640847589e-002+j3.39363076616e-002
  +3.32968610075e-002+j3.57709546134e-002
  +3.63855838725e-002+j3.76630607877e-002
  +3.97520347036e-002+j3.96075177891e-002
  +4.34195911916e-002+j4.15977043897e-002
  +4.74132901600e-002+j4.36252388454e-002
  +5.17598792970e-002+j4.56796980303e-002
  +5.64878534912e-002+j4.77482998691e-002
  +6.16274704053e-002+j4.98155454304e-002
  +6.72107386984e-002+j5.18628170234e-002
  +7.32713708636e-002+j5.38679287601e-002
  +7.98446909475e-002+j5.58046263723e-002
  +8.69674854528e-002+j5.76420336715e-002
  +9.46777834670e-002+j5.93440440281e-002
  +1.03014549518e-001+j6.08686567289e-002
  +1.12017269844e-001+j6.21672602206e-002
  +1.21725409747e-001+j6.31838672368e-002
  +1.32177716557e-001+j6.38543108644e-002
  +1.43411339684e-001+j6.41054159816e-002
  +1.55460736501e-001+j6.38541674718e-002
  +1.68356330807e-001+j6.30069054636e-002
  +1.82122889952e-001+j6.14585888326e-002
  +1.96777588037e-001+j5.90921814972e-002
  +2.12327727069e-001+j5.57782316908e-002
  +2.28768096616e-001+j5.13747321650e-002
  +2.46077967021e-001+j4.57273685582e-002
  +2.64217733098e-001+j3.86702827358e-002
  +2.83125256233e-001+j3.00274957989e-002
  +3.02711994250e-001+j1.96151486857e-002
  +3.22859061186e-001+j7.24472273909e-003
  +3.43413422572e-001-j7.27260701150e-003
  +3.64184503658e-001-j2.41203630385e-002
  +3.84941562716e-001-j4.34698350183e-002
  +4.05412250320e-001-j6.54718516928e-002
  +4.25282825360e-001-j9.02474042435e-002
  +4.44200512924e-001-j1.17877430921e-001
  +4.61778449578e-001-j1.48392259062e-001
  +4.77603550417e-001-j1.81761394929e-001
  +4.91247438012e-001-j2.17884525734e-001
  +5.02280296058e-001-j2.56584715052e-001
  +5.10287167491e-001-j2.97604792423e-001
  +5.14885845545e-001-j3.40607825412e-001
  +5.15745163129e-001-j3.85182299169e-001
  +5.12602238037e-001-j4.30852222461e-001
  +5.05277142932e-001-j4.77091871054e-001
  +4.93683583255e-001-j5.23344340550e-001
  +4.77834490709e-001-j5.69042601343e-001
  +4.57841938808e-001-j6.13631417349e-001
  +4.33911384282e-001-j6.56588372736e-001
  +4.06330835000e-001-j6.97442370959e-001
  +3.75456042213e-001-j7.35788303572e-001
  +3.41693137301e-001-j7.71297066955e-001
  +3.05480244991e-001-j8.03720644110e-001
  +2.67269514369e-001-j8.32892476130e-001
  +2.27510759673e-001-j8.58723752620e-001
  +1.86637559016e-001-j8.81196512075e-001
  +1.45056287835e-001-j9.00354554177e-001
  +1.03138221279e-001-j9.16293145175e-001
  +6.12145631866e-002-j9.29148379879e-001
  +1.95740658625e-002-j9.39086889448e-001
  -2.15372054883e-002-j9.46296389844e-001
  -6.19144488877e-002-j9.50977379609e-001
  -1.01391512671e-001-j9.53336135574e-001
  -1.39837513889e-001-j9.53579029749e-001
  -1.77153039598e-001-j9.51908101422e-001
  -2.13266207902e-001-j9.48517761852e-001
  -2.48128794019e-001-j9.43592479292e-001
  -2.81712563230e-001-j9.37305282501e-001
  -3.14005900055e-001-j9.29816925459e-001
  -3.45010781654e-001-j9.21275569219e-001
  -3.74740112627e-001-j9.11816854679e-001
  -4.03215416606e-001-j9.01564259558e-001
  -4.30464865614e-001-j8.90629652092e-001
  -4.56521619549e-001-j8.79113971623e-001
  -4.81422443721e-001-j8.67107981817e-001
  -5.05206571060e-001-j8.54693055484e-001
  -5.27914776257e-001-j8.41941960861e-001
  -5.49588631127e-001-j8.28919627984e-001
  -5.70269913133e-001-j8.15683880717e-001
  -5.90000142096e-001-j8.02286125282e-001
  -6.08820223174e-001-j7.88771990196e-001
  -6.26770177214e-001-j7.75181915425e-001
  -6.43888942319e-001-j7.61551690710e-001
  -6.60214233010e-001-j7.47912944476e-001
  -6.75782445561e-001-j7.34293585683e-001
  -6.90628600020e-001-j7.20718201598e-001
  -7.04786311087e-001-j7.07208414752e-001
  -7.18287781445e-001-j6.93783202480e-001
  -7.31163812300e-001-j6.80459182420e-001
  -7.43443826925e-001-j6.67250867228e-001
  -7.55155903789e-001-j6.54170891586e-001
  -7.66326816559e-001-j6.41230214389e-001
  -7.76982078817e-001-j6.28438298744e-001
  -7.87145991806e-001-j6.15803272198e-001
  -7.96841693852e-001-j6.03332069388e-001
  -8.06091210475e-001-j5.91030559068e-001
  -8.14915504377e-001-j5.78903657288e-001
  -8.23334524740e-001-j5.66955428288e-001
  -8.31367255401e-001-j5.55189174509e-001
  -8.39031761592e-001-j5.43607516967e-001
  -8.46345235034e-001-j5.32212467077e-001
  -8.53324037260e-001-j5.21005490912e-001
  -8.59983741076e-001-j5.09987566742e-001
