<Qucs Dataset 0.0.17>
<indep y 1>
  +1.00000000000e+000
</indep>
<indep frequency 300>
  +1.00000000000e+006
  +1.02337179863e+006
  +1.04728983824e+006
  +1.07176688545e+006
  +1.09681600527e+006
  +1.12245056809e+006
  +1.14868425674e+006
  +1.17553107388e+006
  +1.20300534942e+006
  +1.23112174820e+006
  +1.25989527780e+006
  +1.28934129653e+006
  +1.31947552168e+006
  +1.35031403787e+006
  +1.38187330565e+006
  +1.41417017029e+006
  +1.44722187074e+006
  +1.48104604888e+006
  +1.51566075890e+006
  +1.55108447695e+006
  +1.58733611101e+006
  +1.62443501096e+006
  +1.66240097893e+006
  +1.70125427985e+006
  +1.74101565230e+006
  +1.78170631955e+006
  +1.82334800087e+006
  +1.86596292318e+006
  +1.90957383288e+006
  +1.95420400797e+006
  +1.99987727054e+006
  +2.04661799939e+006
  +2.09445114315e+006
  +2.14340223351e+006
  +2.19349739891e+006
  +2.24476337841e+006
  +2.29722753607e+006
  +2.35091787546e+006
  +2.40586305464e+006
  +2.46209240149e+006
  +2.51963592932e+006
  +2.57852435288e+006
  +2.63878910483e+006
  +2.70046235242e+006
  +2.76357701474e+006
  +2.82816678023e+006
  +2.89426612472e+006
  +2.96191032977e+006
  +3.03113550157e+006
  +3.10197859014e+006
  +3.17447740911e+006
  +3.24867065588e+006
  +3.32459793227e+006
  +3.40229976568e+006
  +3.48181763069e+006
  +3.56319397123e+006
  +3.64647222321e+006
  +3.73169683773e+006
  +3.81891330478e+006
  +3.90816817754e+006
  +3.99950909720e+006
  +4.09298481845e+006
  +4.18864523544e+006
  +4.28654140842e+006
  +4.38672559105e+006
  +4.48925125822e+006
  +4.59417313464e+006
  +4.70154722402e+006
  +4.81143083900e+006
  +4.92388263171e+006
  +5.03896262507e+006
  +5.15673224485e+006
  +5.27725435248e+006
  +5.40059327854e+006
  +5.52681485714e+006
  +5.65598646107e+006
  +5.78817703770e+006
  +5.92345714588e+006
  +6.06189899350e+006
  +6.20357647610e+006
  +6.34856521631e+006
  +6.49694260415e+006
  +6.64878783842e+006
  +6.80418196893e+006
  +6.96320793976e+006
  +7.12595063357e+006
  +7.29249691684e+006
  +7.46293568631e+006
  +7.63735791638e+006
  +7.81585670768e+006
  +7.99852733680e+006
  +8.18546730707e+006
  +8.37677640068e+006
  +8.57255673191e+006
  +8.77291280161e+006
  +8.97795155303e+006
  +9.18778242886e+006
  +9.40251742967e+006
  +9.62227117368e+006
  +9.84716095793e+006
  +1.00773068209e+007
  +1.03128316067e+007
  +1.05538610304e+007
  +1.08005237452e+007
  +1.10529514113e+007
  +1.13112787659e+007
  +1.15756436955e+007
  +1.18461873090e+007
  +1.21230540134e+007
  +1.24063915906e+007
  +1.26963512766e+007
  +1.29930878420e+007
  +1.32967596747e+007
  +1.36075288642e+007
  +1.39255612887e+007
  +1.42510267030e+007
  +1.45840988294e+007
  +1.49249554505e+007
  +1.52737785039e+007
  +1.56307541795e+007
  +1.59960730186e+007
  +1.63699300161e+007
  +1.67525247241e+007
  +1.71440613585e+007
  +1.75447489083e+007
  +1.79548012469e+007
  +1.83744372461e+007
  +1.88038808934e+007
  +1.92433614112e+007
  +1.96931133791e+007
  +2.01533768594e+007
  +2.06243975251e+007
  +2.11064267910e+007
  +2.15997219478e+007
  +2.21045462997e+007
  +2.26211693047e+007
  +2.31498667185e+007
  +2.36909207418e+007
  +2.42446201708e+007
  +2.48112605514e+007
  +2.53911443368e+007
  +2.59845810493e+007
  +2.65918874451e+007
  +2.72133876838e+007
  +2.78494135008e+007
  +2.85003043852e+007
  +2.91664077602e+007
  +2.98480791692e+007
  +3.05456824652e+007
  +3.12595900048e+007
  +3.19901828478e+007
  +3.27378509595e+007
  +3.35029934198e+007
  +3.42860186356e+007
  +3.50873445590e+007
  +3.59073989106e+007
  +3.67466194074e+007
  +3.76054539966e+007
  +3.84843610949e+007
  +3.93838098329e+007
  +4.03042803057e+007
  +4.12462638290e+007
  +4.22102632016e+007
  +4.31967929733e+007
  +4.42063797203e+007
  +4.52395623254e+007
  +4.62968922663e+007
  +4.73789339096e+007
  +4.84862648124e+007
  +4.96194760300e+007
  +5.07791724321e+007
  +5.19659730249e+007
  +5.31805112821e+007
  +5.44234354830e+007
  +5.56954090580e+007
  +5.69971109433e+007
  +5.83292359429e+007
  +5.96924950997e+007
  +6.10876160751e+007
  +6.25153435369e+007
  +6.39764395575e+007
  +6.54716840200e+007
  +6.70018750351e+007
  +6.85678293664e+007
  +7.01703828670e+007
  +7.18103909254e+007
  +7.34887289218e+007
  +7.52062926959e+007
  +7.69639990247e+007
  +7.87627861119e+007
  +8.06036140886e+007
  +8.24874655261e+007
  +8.44153459601e+007
  +8.63882844274e+007
  +8.84073340153e+007
  +9.04735724235e+007
  +9.25881025397e+007
  +9.47520530281e+007
  +9.69665789315e+007
  +9.92328622883e+007
  +1.01552112763e+008
  +1.03925568294e+008
  +1.06354495749e+008
  +1.08840191607e+008
  +1.11383982648e+008
  +1.13987226662e+008
  +1.16651313170e+008
  +1.19377664171e+008
  +1.22167734900e+008
  +1.25023014599e+008
  +1.27945027321e+008
  +1.30935332735e+008
  +1.33995526966e+008
  +1.37127243440e+008
  +1.40332153761e+008
  +1.43611968600e+008
  +1.46968438611e+008
  +1.50403355364e+008
  +1.53918552299e+008
  +1.57515905709e+008
  +1.61197335739e+008
  +1.64964807410e+008
  +1.68820331670e+008
  +1.72765966467e+008
  +1.76803817846e+008
  +1.80936041074e+008
  +1.85164841791e+008
  +1.89492477187e+008
  +1.93921257207e+008
  +1.98453545781e+008
  +2.03091762090e+008
  +2.07838381858e+008
  +2.12695938667e+008
  +2.17667025315e+008
  +2.22754295200e+008
  +2.27960463732e+008
  +2.33288309786e+008
  +2.38740677186e+008
  +2.44320476219e+008
  +2.50030685191e+008
  +2.55874352017e+008
  +2.61854595847e+008
  +2.67974608733e+008
  +2.74237657326e+008
  +2.80647084631e+008
  +2.87206311780e+008
  +2.93918839865e+008
  +3.00788251804e+008
  +3.07818214257e+008
  +3.15012479576e+008
  +3.22374887815e+008
  +3.29909368777e+008
  +3.37619944111e+008
  +3.45510729459e+008
  +3.53585936654e+008
  +3.61849875964e+008
  +3.70306958401e+008
  +3.78961698064e+008
  +3.87818714561e+008
  +3.96882735464e+008
  +4.06158598838e+008
  +4.15651255823e+008
  +4.25365773275e+008
  +4.35307336473e+008
  +4.45481251884e+008
  +4.55892949998e+008
  +4.66547988223e+008
  +4.77452053857e+008
  +4.88610967116e+008
  +5.00030684249e+008
  +5.11717300711e+008
  +5.23677054420e+008
  +5.35916329085e+008
  +5.48441657612e+008
  +5.61259725595e+008
  +5.74377374883e+008
  +5.87801607227e+008
  +6.01539588027e+008
  +6.15598650148e+008
  +6.29986297838e+008
  +6.44710210732e+008
  +6.59778247954e+008
  +6.75198452307e+008
  +6.90979054572e+008
  +7.07128477894e+008
  +7.23655342287e+008
  +7.40568469226e+008
  +7.57876886363e+008
  +7.75589832339e+008
  +7.93716761722e+008
  +8.12267350048e+008
  +8.31251498989e+008
  +8.50679341636e+008
  +8.70561247910e+008
  +8.90907830093e+008
  +9.11729948498e+008
  +9.33038717262e+008
  +9.54845510278e+008
  +9.77161967270e+008
  +1.00000000000e+009
</indep>
<dep dS21 frequency>
  -1.71453909202e-006
  -1.79562002215e-006
  -1.88053531770e-006
  -1.96946631545e-006
  -2.06260292172e-006
  -2.16014402651e-006
  -2.26229792353e-006
  -2.36928276819e-006
  -2.48132701354e-006
  -2.59866993772e-006
  -2.72156211939e-006
  -2.85026599948e-006
  -2.98505642360e-006
  -3.12622123895e-006
  -3.27406190914e-006
  -3.42889414964e-006
  -3.59104861538e-006
  -3.76087159217e-006
  -3.93872574503e-006
  -4.12499090075e-006
  -4.32006483625e-006
  -4.52436415177e-006
  -4.73832515471e-006
  -4.96240477528e-006
  -5.19708157035e-006
  -5.44285672446e-006
  -5.70025512603e-006
  -5.96982649374e-006
  -6.25214655056e-006
  -6.54781823889e-006
  -6.85747303831e-006
  -7.18177228482e-006
  -7.52140860580e-006
  -7.87710738101e-006
  -8.24962831156e-006
  -8.63976703572e-006
  -9.04835682185e-006
  -9.47627035531e-006
  -9.92442162047e-006
  -1.03937678130e-005
  -1.08853114339e-005
  -1.14001024017e-005
  -1.19392402954e-005
  -1.25038767367e-005
  -1.30952178135e-005
  -1.37145266767e-005
  -1.43631262493e-005
  -1.50424020421e-005
  -1.57538051159e-005
  -1.64988551969e-005
  -1.72791439209e-005
  -1.80963382340e-005
  -1.89521839619e-005
  -1.98485095464e-005
  -2.07872299525e-005
  -2.17703507791e-005
  -2.27999725409e-005
  -2.38782951460e-005
  -2.50076226426e-005
  -2.61903681337e-005
  -2.74290589348e-005
  -2.87263419885e-005
  -3.00849895450e-005
  -3.15079050924e-005
  -3.29981295733e-005
  -3.45588479044e-005
  -3.61933957958e-005
  -3.79052669105e-005
  -3.96981203299e-005
  -4.15757884412e-005
  -4.35422850991e-005
  -4.56018142835e-005
  -4.77587790931e-005
  -5.00177911919e-005
  -5.23836807163e-005
  -5.48615066371e-005
  -5.74565676322e-005
  -6.01744134415e-005
  -6.30208568208e-005
  -6.60019860127e-005
  -6.91241778353e-005
  -7.23941113985e-005
  -7.58187824784e-005
  -7.94055185418e-005
  -8.31619945440e-005
  -8.70962494590e-005
  -9.12167035584e-005
  -9.55321766095e-005
  -1.00051906837e-004
  -1.04785570893e-004
  -1.09743304700e-004
  -1.14935725368e-004
  -1.20373954102e-004
  -1.26069640246e-004
  -1.32034986483e-004
  -1.38282775215e-004
  -1.44826396263e-004
  -1.51679875862e-004
  -1.58857907070e-004
  -1.66375881641e-004
  -1.74249923450e-004
  -1.82496923520e-004
  -1.91134576747e-004
  -2.00181420425e-004
  -2.09656874612e-004
  -2.19581284486e-004
  -2.29975964720e-004
  -2.40863246095e-004
  -2.52266524281e-004
  -2.64210311107e-004
  -2.76720288276e-004
  -2.89823363704e-004
  -3.03547730703e-004
  -3.17922929962e-004
  -3.32979914672e-004
  -3.48751118825e-004
  -3.65270528891e-004
  -3.82573759056e-004
  -4.00698130178e-004
  -4.19682752702e-004
  -4.39568613666e-004
  -4.60398668104e-004
  -4.82217934975e-004
  -5.05073597965e-004
  -5.29015111323e-004
  -5.54094311063e-004
  -5.80365531799e-004
  -6.07885729504e-004
  -6.36714610523e-004
  -6.66914767208e-004
  -6.98551820474e-004
  -7.31694569707e-004
  -7.66415150442e-004
  -8.02789200184e-004
  -8.40896032856e-004
  -8.80818822397e-004
  -9.22644795981e-004
  -9.66465437442e-004
  -1.01237670141e-003
  -1.06047923892e-003
  -1.11087863504e-003
  -1.16368565927e-003
  -1.21901652947e-003
  -1.27699319013e-003
  -1.33774360582e-003
  -1.40140207076e-003
  -1.46810953551e-003
  -1.53801395178e-003
  -1.61127063657e-003
  -1.68804265677e-003
  -1.76850123560e-003
  -1.85282618221e-003
  -1.94120634596e-003
  -2.03384009705e-003
  -2.13093583515e-003
  -2.23271252791e-003
  -2.33940028140e-003
  -2.45124094463e-003
  -2.56848875042e-003
  -2.69141099528e-003
  -2.82028876087e-003
  -2.95541768009e-003
  -3.09710875099e-003
  -3.24568920187e-003
  -3.40150341147e-003
  -3.56491388812e-003
  -3.73630231248e-003
  -3.91607064852e-003
  -4.10464232803e-003
  -4.30246351432e-003
  -4.51000445141e-003
  -4.72776090531e-003
  -4.95625570500e-003
  -5.19604039092e-003
  -5.44769698011e-003
  -5.71183985745e-003
  -5.98911780377e-003
  -6.28021617228e-003
  -6.58585922645e-003
  -6.90681265296e-003
  -7.24388626568e-003
  -7.59793691733e-003
  -7.96987163785e-003
  -8.36065102035e-003
  -8.77129287728e-003
  -9.20287619264e-003
  -9.65654539803e-003
  -1.01335150040e-002
  -1.06350746216e-002
  -1.11625944119e-002
  -1.17175310074e-002
  -1.23014339529e-002
  -1.29159527189e-002
  -1.35628443471e-002
  -1.42439817966e-002
  -1.49613630626e-002
  -1.57171211548e-002
  -1.65135350281e-002
  -1.73530415723e-002
  -1.82382487811e-002
  -1.91719502358e-002
  -2.01571410560e-002
  -2.11970354916e-002
  -2.22950863528e-002
  -2.34550065012e-002
  -2.46807926575e-002
  -2.59767518163e-002
  -2.73475305995e-002
  -2.87981479302e-002
  -3.03340314622e-002
  -3.19610582686e-002
  -3.36856003680e-002
  -3.55145757554e-002
  -3.74555057144e-002
  -3.95165793062e-002
  -4.17067260815e-002
  -4.40356982328e-002
  -4.65141636123e-002
  -4.91538112845e-002
  -5.19674715768e-002
  -5.49692529432e-002
  -5.81746983770e-002
  -6.16009646202e-002
  -6.52670280319e-002
  -6.91939217296e-002
  -7.34050095268e-002
  -7.79263033149e-002
  -8.27868319034e-002
  -8.80190710366e-002
  -9.36594463984e-002
  -9.97489240413e-002
  -1.06333705941e-001
  -1.13466052501e-001
  -1.21205259016e-001
  -1.29618819720e-001
  -1.38783821462e-001
  -1.48788619891e-001
  -1.59734865004e-001
  -1.71739961149e-001
  -1.84940070344e-001
  -1.99493799193e-001
  -2.15586751370e-001
  -2.33437183342e-001
  -2.53303076205e-001
  -2.75491038655e-001
  -3.00367596220e-001
  -3.28373615768e-001
  -3.60042885193e-001
  -3.96026250419e-001
  -4.37123257022e-001
  -4.84324029775e-001
  -5.38865269866e-001
  -6.02305942051e-001
  -6.76630754415e-001
  -7.64393366979e-001
  -8.68917154922e-001
  -9.94580535118e-001
  -1.14722841357e+000
  -1.33477477690e+000
  -1.56810010416e+000
  -1.86241268268e+000
  -2.23935783590e+000
  -2.73037272141e+000
  -3.38221727445e+000
  -4.26660564505e+000
  -5.49854551007e+000
  -7.27676898426e+000
  -9.99602700653e+000
  -1.47007606040e+001
  -2.77266791379e+001
  -1.96236408143e+001
  -1.22660430505e+001
  -8.65056684435e+000
  -6.41370857381e+000
  -4.90714571201e+000
  -3.84529505214e+000
  -3.07358828366e+000
  -2.49911676980e+000
  -2.06265857017e+000
  -1.72503289685e+000
  -1.45960658034e+000
  -1.24787275423e+000
  -1.07672219716e+000
  -9.36706546791e-001
  -8.20906429915e-001
  -7.24179080227e-001
  -6.42649337803e-001
  -5.73359694692e-001
  -5.14026037390e-001
  -4.62864732194e-001
  -4.18468572493e-001
  -3.79716654977e-001
  -3.45708124631e-001
  -3.15712919998e-001
  -2.89134769167e-001
  -2.65483112305e-001
  -2.44351597172e-001
  -2.25401462919e-001
  -2.08348593688e-001
  -1.92953351864e-001
</dep>
<dep dS11 frequency>
  -6.40363700568e+001
  -6.38356996200e+001
  -6.36350291103e+001
  -6.34343585243e+001
  -6.32336878584e+001
  -6.30330171088e+001
  -6.28323462716e+001
  -6.26316753426e+001
  -6.24310043175e+001
  -6.22303331917e+001
  -6.20296619604e+001
  -6.18289906188e+001
  -6.16283191615e+001
  -6.14276475831e+001
  -6.12269758779e+001
  -6.10263040398e+001
  -6.08256320626e+001
  -6.06249599398e+001
  -6.04242876643e+001
  -6.02236152290e+001
  -6.00229426264e+001
  -5.98222698485e+001
  -5.96215968871e+001
  -5.94209237334e+001
  -5.92202503784e+001
  -5.90195768125e+001
  -5.88189030258e+001
  -5.86182290078e+001
  -5.84175547477e+001
  -5.82168802338e+001
  -5.80162054544e+001
  -5.78155303967e+001
  -5.76148550476e+001
  -5.74141793933e+001
  -5.72135034195e+001
  -5.70128271110e+001
  -5.68121504520e+001
  -5.66114734258e+001
  -5.64107960152e+001
  -5.62101182019e+001
  -5.60094399670e+001
  -5.58087612904e+001
  -5.56080821513e+001
  -5.54074025278e+001
  -5.52067223970e+001
  -5.50060417349e+001
  -5.48053605164e+001
  -5.46046787152e+001
  -5.44039963037e+001
  -5.42033132530e+001
  -5.40026295330e+001
  -5.38019451119e+001
  -5.36012599566e+001
  -5.34005740324e+001
  -5.31998873030e+001
  -5.29991997302e+001
  -5.27985112741e+001
  -5.25978218930e+001
  -5.23971315431e+001
  -5.21964401787e+001
  -5.19957477517e+001
  -5.17950542118e+001
  -5.15943595066e+001
  -5.13936635807e+001
  -5.11929663765e+001
  -5.09922678336e+001
  -5.07915678886e+001
  -5.05908664752e+001
  -5.03901635239e+001
  -5.01894589621e+001
  -4.99887527135e+001
  -4.97880446984e+001
  -4.95873348332e+001
  -4.93866230304e+001
  -4.91859091983e+001
  -4.89851932411e+001
  -4.87844750580e+001
  -4.85837545440e+001
  -4.83830315886e+001
  -4.81823060765e+001
  -4.79815778867e+001
  -4.77808468925e+001
  -4.75801129614e+001
  -4.73793759542e+001
  -4.71786357256e+001
  -4.69778921231e+001
  -4.67771449872e+001
  -4.65763941507e+001
  -4.63756394385e+001
  -4.61748806672e+001
  -4.59741176449e+001
  -4.57733501704e+001
  -4.55725780331e+001
  -4.53718010124e+001
  -4.51710188772e+001
  -4.49702313856e+001
  -4.47694382840e+001
  -4.45686393072e+001
  -4.43678341769e+001
  -4.41670226021e+001
  -4.39662042779e+001
  -4.37653788848e+001
  -4.35645460882e+001
  -4.33637055379e+001
  -4.31628568669e+001
  -4.29619996908e+001
  -4.27611336070e+001
  -4.25602581941e+001
  -4.23593730102e+001
  -4.21584775931e+001
  -4.19575714581e+001
  -4.17566540980e+001
  -4.15557249813e+001
  -4.13547835513e+001
  -4.11538292251e+001
  -4.09528613920e+001
  -4.07518794124e+001
  -4.05508826163e+001
  -4.03498703021e+001
  -4.01488417347e+001
  -3.99477961443e+001
  -3.97467327245e+001
  -3.95456506306e+001
  -3.93445489779e+001
  -3.91434268395e+001
  -3.89422832448e+001
  -3.87411171769e+001
  -3.85399275706e+001
  -3.83387133102e+001
  -3.81374732269e+001
  -3.79362060964e+001
  -3.77349106360e+001
  -3.75335855023e+001
  -3.73322292879e+001
  -3.71308405184e+001
  -3.69294176491e+001
  -3.67279590620e+001
  -3.65264630619e+001
  -3.63249278730e+001
  -3.61233516346e+001
  -3.59217323976e+001
  -3.57200681198e+001
  -3.55183566615e+001
  -3.53165957811e+001
  -3.51147831297e+001
  -3.49129162463e+001
  -3.47109925525e+001
  -3.45090093463e+001
  -3.43069637966e+001
  -3.41048529367e+001
  -3.39026736578e+001
  -3.37004227023e+001
  -3.34980966561e+001
  -3.32956919416e+001
  -3.30932048092e+001
  -3.28906313290e+001
  -3.26879673825e+001
  -3.24852086527e+001
  -3.22823506149e+001
  -3.20793885259e+001
  -3.18763174141e+001
  -3.16731320675e+001
  -3.14698270222e+001
  -3.12663965500e+001
  -3.10628346451e+001
  -3.08591350104e+001
  -3.06552910432e+001
  -3.04512958196e+001
  -3.02471420788e+001
  -3.00428222060e+001
  -2.98383282148e+001
  -2.96336517283e+001
  -2.94287839595e+001
  -2.92237156906e+001
  -2.90184372507e+001
  -2.88129384934e+001
  -2.86072087719e+001
  -2.84012369136e+001
  -2.81950111927e+001
  -2.79885193022e+001
  -2.77817483232e+001
  -2.75746846930e+001
  -2.73673141720e+001
  -2.71596218074e+001
  -2.69515918960e+001
  -2.67432079440e+001
  -2.65344526254e+001
  -2.63253077367e+001
  -2.61157541502e+001
  -2.59057717635e+001
  -2.56953394468e+001
  -2.54844349861e+001
  -2.52730350235e+001
  -2.50611149940e+001
  -2.48486490575e+001
  -2.46356100275e+001
  -2.44219692943e+001
  -2.42076967443e+001
  -2.39927606726e+001
  -2.37771276915e+001
  -2.35607626313e+001
  -2.33436284360e+001
  -2.31256860502e+001
  -2.29068942994e+001
  -2.26872097616e+001
  -2.24665866297e+001
  -2.22449765639e+001
  -2.20223285336e+001
  -2.17985886477e+001
  -2.15736999719e+001
  -2.13476023328e+001
  -2.11202321060e+001
  -2.08915219889e+001
  -2.06614007544e+001
  -2.04297929860e+001
  -2.01966187907e+001
  -1.99617934885e+001
  -1.97252272757e+001
  -1.94868248607e+001
  -1.92464850669e+001
  -1.90041004023e+001
  -1.87595565905e+001
  -1.85127320597e+001
  -1.82634973851e+001
  -1.80117146796e+001
  -1.77572369284e+001
  -1.74999072588e+001
  -1.72395581417e+001
  -1.69760105133e+001
  -1.67090728119e+001
  -1.64385399176e+001
  -1.61641919857e+001
  -1.58857931606e+001
  -1.56030901593e+001
  -1.53158107077e+001
  -1.50236618160e+001
  -1.47263278759e+001
  -1.44234685619e+001
  -1.41147165197e+001
  -1.37996748228e+001
  -1.34779141834e+001
  -1.31489699036e+001
  -1.28123385628e+001
  -1.24674744468e+001
  -1.21137857450e+001
  -1.17506305689e+001
  -1.13773128946e+001
  -1.09930786021e+001
  -1.05971118950e+001
  -1.01885325498e+001
  -9.76639470286e+000
  -9.32968826965e+000
  -8.87734468767e+000
  -8.40824958160e+000
  -7.92126633624e+000
  -7.41527667779e+000
  -6.88924757411e+000
  -6.34233858952e+000
  -5.77407093989e+000
  -5.18458959794e+000
  -4.57506317137e+000
  -3.94828143179e+000
  -3.30952079750e+000
  -2.66773540065e+000
  -2.03705411703e+000
  -1.43834849529e+000
  -9.00202797421e-001
  -4.58016573765e-001
  -1.49682448284e-001
  -7.33640276732e-003
  -4.76210654013e-002
  -2.65703610626e-001
  -6.37077359014e-001
  -1.12587963194e+000
  -1.69450891972e+000
  -2.31024810392e+000
  -2.94792067847e+000
  -3.58977970333e+000
  -4.22415670134e+000
  -4.84387364110e+000
  -5.44486770899e+000
  -6.02514692077e+000
  -6.58405050009e+000
  -7.12174604034e+000
  -7.63889633223e+000
  -8.13644258145e+000
  -8.61546551331e+000
  -9.07709783750e+000
  -9.52247026438e+000
  -9.95267928523e+000
  -1.03687689735e+001
  -1.07717217411e+001
  -1.11624547430e+001
  -1.15418197762e+001
  -1.19106052726e+001
  -1.22695394823e+001
  -1.26192942639e+001
  -1.29604891149e+001
  -1.32936952120e+001
  -1.36194393241e+001
</dep>
<dep S[2,2] frequency>
