<Qucs Dataset 0.0.17>
<indep a 20>
  +1.00000000000e-001
  +8.84210526316e-001
  +1.66842105263e+000
  +2.45263157895e+000
  +3.23684210526e+000
  +4.02105263158e+000
  +4.80526315789e+000
  +5.58947368421e+000
  +6.37368421053e+000
  +7.15789473684e+000
  +7.94210526316e+000
  +8.72631578947e+000
  +9.51052631579e+000
  +1.02947368421e+001
  +1.10789473684e+001
  +1.18631578947e+001
  +1.26473684211e+001
  +1.34315789474e+001
  +1.42157894737e+001
  +1.50000000000e+001
</indep>
<dep Pr1.V a>
  +9.99991229602e-002
  +8.84208784387e-001
  +1.66841846013e+000
  +2.45262810311e+000
  +3.23683769366e+000
  +4.02104721081e+000
  +4.80525662865e+000
  +5.58946591326e+000
  +6.37367501773e+000
  +7.15788388495e+000
  +7.94209244689e+000
  +8.72630053597e+000
  +9.51050767567e+000
  +1.02947144294e+001
  +1.10789171531e+001
  +1.18631220102e+001
  +1.26473113561e+001
  +1.34314974977e+001
  +1.39587946886e+001
  +1.39590587845e+001
</dep>
<dep Pr2.V a>
  +1.00000000000e-001
  +8.84210526316e-001
  +1.66842105263e+000
  +2.45263157895e+000
  +3.23684210526e+000
  +4.02105263158e+000
  +4.80526315789e+000
  +5.58947368421e+000
  +6.37368421053e+000
  +7.15789473684e+000
  +7.94210526316e+000
  +8.72631578947e+000
  +9.51052631579e+000
  +1.02947368421e+001
  +1.10789473684e+001
  +1.18631578947e+001
  +1.26473684211e+001
  +1.34315789474e+001
  +1.42157894737e+001
  +1.50000000000e+001
</dep>
<dep Pr3.V a>
  +8.74586240976e-001
  +1.72298426823e+000
  +2.53148165254e+000
  +3.33349188549e+000
  +4.13268929561e+000
  +4.93034938972e+000
  +5.72700319296e+000
  +6.52296270682e+000
  +7.31840807971e+000
  +8.11347247053e+000
  +8.90825690774e+000
  +9.70274142875e+000
  +1.04969593057e+001
  +1.12911125198e+001
  +1.20849953893e+001
  +1.28788700970e+001
  +1.36725000772e+001
  +1.44660902953e+001
  +1.49996451715e+001
  +1.49999123975e+001
</dep>
<dep V1.I a>
  -9.90090326340e-004
  -8.75454241968e-003
  -1.65189946548e-002
  -2.42834465655e-002
  -3.20478979570e-002
  -3.98123486219e-002
  -4.75767983035e-002
  -5.53412466660e-002
  -6.31056932448e-002
  -7.08701374748e-002
  -7.86345786821e-002
  -8.63990152076e-002
  -9.41634423334e-002
  -1.01927865637e-001
  -1.09692249041e-001
  -1.17456653566e-001
  -1.25220904516e-001
  -1.32985123739e-001
  -1.38205888006e-001
  -1.38208502817e-001
</dep>
<dep V3.I a>
  +0.00000000000e+000
  +0.00000000000e+000
  +0.00000000000e+000
  +0.00000000000e+000
  +0.00000000000e+000
  +0.00000000000e+000
  +0.00000000000e+000
  +0.00000000000e+000
  +0.00000000000e+000
  +0.00000000000e+000
  +0.00000000000e+000
  +0.00000000000e+000
  +0.00000000000e+000
  +0.00000000000e+000
  +0.00000000000e+000
  +0.00000000000e+000
  +0.00000000000e+000
  +0.00000000000e+000
  +0.00000000000e+000
  +0.00000000000e+000
</dep>
<dep _net1.V a>
  +9.99991229602e-002
  +8.84208784387e-001
  +1.66841846013e+000
  +2.45262810311e+000
  +3.23683769366e+000
  +4.02104721081e+000
  +4.80525662865e+000
  +5.58946591326e+000
  +6.37367501773e+000
  +7.15788388495e+000
  +7.94209244689e+000
  +8.72630053597e+000
  +9.51050767567e+000
  +1.02947144294e+001
  +1.10789171531e+001
  +1.18631220102e+001
  +1.26473113561e+001
  +1.34314974977e+001
  +1.39587946886e+001
  +1.39590587845e+001
</dep>
<dep _net4.V a>
  +1.00999114190e-001
  +8.93050872231e-001
  +1.68510264474e+000
  +2.47715438415e+000
  +3.26920607060e+000
  +4.06125768292e+000
  +4.85330919494e+000
  +5.64536057240e+000
  +6.43741176790e+000
  +7.22946272380e+000
  +8.02151337136e+000
  +8.81356354133e+000
  +9.60561275243e+000
  +1.03976615737e+001
  +1.11897063246e+001
  +1.19817532303e+001
  +1.27737844697e+001
  +1.35658124726e+001
  +1.40983826355e+001
  +1.40986493723e+001
</dep>
<dep _net5.V a>
  +9.99991229602e-002
  +8.84208784387e-001
  +1.66841846013e+000
  +2.45262810311e+000
  +3.23683769366e+000
  +4.02104721081e+000
  +4.80525662865e+000
  +5.58946591326e+000
  +6.37367501773e+000
  +7.15788388495e+000
  +7.94209244689e+000
  +8.72630053597e+000
  +9.51050767567e+000
  +1.02947144294e+001
  +1.10789171531e+001
  +1.18631220102e+001
  +1.26473113561e+001
  +1.34314974977e+001
  +1.39587946886e+001
  +1.39590587845e+001
</dep>
<dep _net3.V a>
  +8.74586240976e-001
  +1.72298426823e+000
  +2.53148165254e+000
  +3.33349188549e+000
  +4.13268929561e+000
  +4.93034938972e+000
  +5.72700319296e+000
  +6.52296270682e+000
  +7.31840807971e+000
  +8.11347247053e+000
  +8.90825690774e+000
  +9.70274142875e+000
  +1.04969593057e+001
  +1.12911125198e+001
  +1.20849953893e+001
  +1.28788700970e+001
  +1.36725000772e+001
  +1.44660902953e+001
  +1.49996451715e+001
  +1.49999123975e+001
</dep>
<dep _net0.V a>
  +1.50000000000e+001
  +1.50000000000e+001
  +1.50000000000e+001
  +1.50000000000e+001
  +1.50000000000e+001
  +1.50000000000e+001
  +1.50000000000e+001
  +1.50000000000e+001
  +1.50000000000e+001
  +1.50000000000e+001
  +1.50000000000e+001
  +1.50000000000e+001
  +1.50000000000e+001
  +1.50000000000e+001
  +1.50000000000e+001
  +1.50000000000e+001
  +1.50000000000e+001
  +1.50000000000e+001
  +1.50000000000e+001
  +1.50000000000e+001
</dep>
<dep _net2.V a>
  +1.00000000000e-001
  +8.84210526316e-001
  +1.66842105263e+000
  +2.45263157895e+000
  +3.23684210526e+000
  +4.02105263158e+000
  +4.80526315789e+000
  +5.58947368421e+000
  +6.37368421053e+000
  +7.15789473684e+000
  +7.94210526316e+000
  +8.72631578947e+000
  +9.51052631579e+000
  +1.02947368421e+001
  +1.10789473684e+001
  +1.18631578947e+001
  +1.26473684211e+001
  +1.34315789474e+001
  +1.42157894737e+001
  +1.50000000000e+001
</dep>
