<Qucs Dataset 0.0.18>
<indep vol 101>
  +0.00000000000e+000
  +5.00000000000e-002
  +1.00000000000e-001
  +1.50000000000e-001
  +2.00000000000e-001
  +2.50000000000e-001
  +3.00000000000e-001
  +3.50000000000e-001
  +4.00000000000e-001
  +4.50000000000e-001
  +5.00000000000e-001
  +5.50000000000e-001
  +6.00000000000e-001
  +6.50000000000e-001
  +7.00000000000e-001
  +7.50000000000e-001
  +8.00000000000e-001
  +8.50000000000e-001
  +9.00000000000e-001
  +9.50000000000e-001
  +1.00000000000e+000
  +1.05000000000e+000
  +1.10000000000e+000
  +1.15000000000e+000
  +1.20000000000e+000
  +1.25000000000e+000
  +1.30000000000e+000
  +1.35000000000e+000
  +1.40000000000e+000
  +1.45000000000e+000
  +1.50000000000e+000
  +1.55000000000e+000
  +1.60000000000e+000
  +1.65000000000e+000
  +1.70000000000e+000
  +1.75000000000e+000
  +1.80000000000e+000
  +1.85000000000e+000
  +1.90000000000e+000
  +1.95000000000e+000
  +2.00000000000e+000
  +2.05000000000e+000
  +2.10000000000e+000
  +2.15000000000e+000
  +2.20000000000e+000
  +2.25000000000e+000
  +2.30000000000e+000
  +2.35000000000e+000
  +2.40000000000e+000
  +2.45000000000e+000
  +2.50000000000e+000
  +2.55000000000e+000
  +2.60000000000e+000
  +2.65000000000e+000
  +2.70000000000e+000
  +2.75000000000e+000
  +2.80000000000e+000
  +2.85000000000e+000
  +2.90000000000e+000
  +2.95000000000e+000
  +3.00000000000e+000
  +3.05000000000e+000
  +3.10000000000e+000
  +3.15000000000e+000
  +3.20000000000e+000
  +3.25000000000e+000
  +3.30000000000e+000
  +3.35000000000e+000
  +3.40000000000e+000
  +3.45000000000e+000
  +3.50000000000e+000
  +3.55000000000e+000
  +3.60000000000e+000
  +3.65000000000e+000
  +3.70000000000e+000
  +3.75000000000e+000
  +3.80000000000e+000
  +3.85000000000e+000
  +3.90000000000e+000
  +3.95000000000e+000
  +4.00000000000e+000
  +4.05000000000e+000
  +4.10000000000e+000
  +4.15000000000e+000
  +4.20000000000e+000
  +4.25000000000e+000
  +4.30000000000e+000
  +4.35000000000e+000
  +4.40000000000e+000
  +4.45000000000e+000
  +4.50000000000e+000
  +4.55000000000e+000
  +4.60000000000e+000
  +4.65000000000e+000
  +4.70000000000e+000
  +4.75000000000e+000
  +4.80000000000e+000
  +4.85000000000e+000
  +4.90000000000e+000
  +4.95000000000e+000
  +5.00000000000e+000
</indep>
<dep y vol>
  +2.76755920630e-006
  +2.76708774435e-006
  +2.76671839882e-006
  +2.77290151206e-006
  +3.19338626082e-006
  +3.15189563240e-005
  +1.93141685540e-004
  +5.70406450934e-004
  +9.75729058648e-004
  +1.38906881760e-003
  +1.80659924938e-003
  +2.22680690836e-003
  +2.64890362238e-003
  +3.07241407164e-003
  +3.49702422120e-003
  +3.92251324783e-003
  +4.34871865229e-003
  +4.77551662144e-003
  +5.20281017896e-003
  +5.63052163221e-003
  +6.05858755114e-003
  +6.48695530364e-003
  +6.91558060181e-003
  +7.34442571123e-003
  +7.77345812579e-003
  +8.20264955714e-003
  +8.63197516477e-003
  +9.06141294793e-003
  +9.49094326867e-003
  +9.92054846922e-003
  +1.03502125606e-002
  +1.07799209723e-002
  +1.12096603417e-002
  +1.16394183421e-002
  +1.20691835361e-002
  +1.24989452560e-002
  +1.29286934977e-002
  +1.33584188341e-002
  +1.37881123358e-002
  +1.42177655085e-002
  +1.46473702340e-002
  +1.50769187202e-002
  +1.55064034570e-002
  +1.59358171773e-002
  +1.63651528227e-002
  +1.67944035125e-002
  +1.72235625157e-002
  +1.76526232261e-002
  +1.80815791387e-002
  +1.85104238304e-002
  +1.89391509397e-002
  +1.93677541496e-002
  +1.97962271715e-002
  +2.02245637291e-002
  +2.06527575453e-002
  +2.10808023274e-002
  +2.15086917552e-002
  +2.19364194695e-002
  +2.23639790580e-002
  +2.27913640469e-002
  +2.32185678877e-002
  +2.36455839477e-002
  +2.40724054992e-002
  +2.44990257090e-002
  +2.49254376289e-002
  +2.53516341852e-002
  +2.57776081681e-002
  +2.62033522231e-002
  +2.66288588391e-002
  +2.70541203394e-002
  +2.74791288713e-002
  +2.79038763957e-002
  +2.83283546747e-002
  +2.87525552652e-002
  +2.91764695028e-002
  +2.96000884939e-002
  +3.00234031028e-002
  +3.04464039401e-002
  +3.08690813510e-002
  +3.12914254030e-002
  +3.17134258705e-002
  +3.21350722265e-002
  +3.25563536239e-002
  +3.29772588846e-002
  +3.33977764913e-002
  +3.38178945456e-002
  +3.42376007768e-002
  +3.46568825490e-002
  +3.50757267867e-002
  +3.54941199824e-002
  +3.59120482173e-002
  +3.63294970828e-002
  +3.67464517052e-002
  +3.71628966801e-002
  +3.75788161097e-002
  +3.79941988569e-002
  +3.84090206770e-002
  +3.88232592132e-002
  +3.92369168494e-002
  +3.96499541720e-002
  +4.00623585523e-002
</dep>
<dep Pr2.V vol>
  +2.31155760676e-003
  +3.78166843357e-003
  +5.25177952573e-003
  +6.72189248354e-003
  +8.19209282535e-003
  +9.73639593400e-003
  +8.78633590263e-002
  +4.02661253283e-001
  +7.47859853328e-001
  +1.10143062475e+000
  +1.45926679804e+000
  +1.81977818888e+000
  +2.18215082957e+000
  +2.54590051949e+000
  +2.91071080437e+000
  +3.27636106624e+000
  +3.64269006583e+000
  +4.00957562079e+000
  +4.37692244631e+000
  +4.74465446554e+000
  +5.11270973034e+000
  +5.48103693930e+000
  +5.84959298109e+000
  +6.21834115483e+000
  +6.58724985323e+000
  +6.95629156786e+000
  +7.32544212761e+000
  +7.69468010494e+000
  +8.06398634718e+000
  +8.43334360303e+000
  +8.80273622040e+000
  +9.17214990051e+000
  +9.54157149524e+000
  +9.91098883990e+000
  +1.02803906112e+001
  +1.06497662107e+001
  +1.10191056635e+001
  +1.13883995327e+001
  +1.17576388452e+001
  +1.21268150293e+001
  +1.24959198575e+001
  +1.28649454000e+001
  +1.32338839800e+001
  +1.36027281370e+001
  +1.39714705938e+001
  +1.43401042248e+001
  +1.47086220302e+001
  +1.50770171112e+001
  +1.54452826472e+001
  +1.58134118756e+001
  +1.61813980741e+001
  +1.65492345412e+001
  +1.69169145813e+001
  +1.72844314898e+001
  +1.76517785376e+001
  +1.80189489584e+001
  +1.83859359354e+001
  +1.87527325888e+001
  +1.91193319639e+001
  +1.94857270197e+001
  +1.98519106167e+001
  +2.02178755069e+001
  +2.05836143220e+001
  +2.09491195631e+001
  +2.13143835893e+001
  +2.16793986077e+001
  +2.20441566619e+001
  +2.24086496222e+001
  +2.27728691728e+001
  +2.31368068033e+001
  +2.35004537953e+001
  +2.38638012121e+001
  +2.42268398869e+001
  +2.45895604110e+001
  +2.49519531215e+001
  +2.53140080887e+001
  +2.56757151039e+001
  +2.60370636656e+001
  +2.63980429665e+001
  +2.67586418798e+001
  +2.71188489433e+001
  +2.74786523468e+001
  +2.78380399155e+001
  +2.81969990942e+001
  +2.85555169412e+001
  +2.89135800768e+001
  +2.92711746961e+001
  +2.96282865804e+001
  +2.99849010068e+001
  +3.03410027574e+001
  +3.06965761515e+001
  +3.10516049450e+001
  +3.14060723660e+001
  +3.17599610355e+001
  +3.21132530157e+001
  +3.24659450114e+001
  +3.28179910719e+001
  +3.31693700749e+001
  +3.35201002269e+001
  +3.38701214848e+001
  +3.42194247449e+001
</dep>
<dep V1.I vol>
  -2.76755920630e-006
  -2.76708774435e-006
  -2.76671839882e-006
  -2.77290151206e-006
  -3.19338626082e-006
  -3.15189563240e-005
  -1.93141685540e-004
  -5.70406450934e-004
  -9.75729058648e-004
  -1.38906881760e-003
  -1.80659924938e-003
  -2.22680690836e-003
  -2.64890362238e-003
  -3.07241407164e-003
  -3.49702422120e-003
  -3.92251324783e-003
  -4.34871865229e-003
  -4.77551662144e-003
  -5.20281017896e-003
  -5.63052163221e-003
  -6.05858755114e-003
  -6.48695530364e-003
  -6.91558060181e-003
  -7.34442571123e-003
  -7.77345812579e-003
  -8.20264955714e-003
  -8.63197516477e-003
  -9.06141294793e-003
  -9.49094326867e-003
  -9.92054846922e-003
  -1.03502125606e-002
  -1.07799209723e-002
  -1.12096603417e-002
  -1.16394183421e-002
  -1.20691835361e-002
  -1.24989452560e-002
  -1.29286934977e-002
  -1.33584188341e-002
  -1.37881123358e-002
  -1.42177655085e-002
  -1.46473702340e-002
  -1.50769187202e-002
  -1.55064034570e-002
  -1.59358171773e-002
  -1.63651528227e-002
  -1.67944035125e-002
  -1.72235625157e-002
  -1.76526232261e-002
  -1.80815791387e-002
  -1.85104238304e-002
  -1.89391509397e-002
  -1.93677541496e-002
  -1.97962271715e-002
  -2.02245637291e-002
  -2.06527575453e-002
  -2.10808023274e-002
  -2.15086917552e-002
  -2.19364194695e-002
  -2.23639790580e-002
  -2.27913640469e-002
  -2.32185678877e-002
  -2.36455839477e-002
  -2.40724054992e-002
  -2.44990257090e-002
  -2.49254376289e-002
  -2.53516341852e-002
  -2.57776081681e-002
  -2.62033522231e-002
  -2.66288588391e-002
  -2.70541203394e-002
  -2.74791288713e-002
  -2.79038763957e-002
  -2.83283546747e-002
  -2.87525552652e-002
  -2.91764695028e-002
  -2.96000884939e-002
  -3.00234031028e-002
  -3.04464039401e-002
  -3.08690813510e-002
  -3.12914254030e-002
  -3.17134258705e-002
  -3.21350722265e-002
  -3.25563536239e-002
  -3.29772588846e-002
  -3.33977764913e-002
  -3.38178945456e-002
  -3.42376007768e-002
  -3.46568825490e-002
  -3.50757267867e-002
  -3.54941199824e-002
  -3.59120482173e-002
  -3.63294970828e-002
  -3.67464517052e-002
  -3.71628966801e-002
  -3.75788161097e-002
  -3.79941988569e-002
  -3.84090206770e-002
  -3.88232592132e-002
  -3.92369168494e-002
  -3.96499541720e-002
  -4.00623585523e-002
</dep>
<dep V2.I vol>
  +0.00000000000e+000
  +0.00000000000e+000
  +0.00000000000e+000
  +0.00000000000e+000
  +0.00000000000e+000
  +0.00000000000e+000
  +0.00000000000e+000
  +0.00000000000e+000
  +0.00000000000e+000
  +0.00000000000e+000
  +0.00000000000e+000
  +0.00000000000e+000
  +0.00000000000e+000
  +0.00000000000e+000
  +0.00000000000e+000
  +0.00000000000e+000
  +0.00000000000e+000
  +0.00000000000e+000
  +0.00000000000e+000
  +0.00000000000e+000
  +0.00000000000e+000
  +0.00000000000e+000
  +0.00000000000e+000
  +0.00000000000e+000
  +0.00000000000e+000
  +0.00000000000e+000
  +0.00000000000e+000
  +0.00000000000e+000
  +0.00000000000e+000
  +0.00000000000e+000
  +0.00000000000e+000
  +0.00000000000e+000
  +0.00000000000e+000
  +0.00000000000e+000
  +0.00000000000e+000
  +0.00000000000e+000
  +0.00000000000e+000
  +0.00000000000e+000
  +0.00000000000e+000
  +0.00000000000e+000
  +0.00000000000e+000
  +0.00000000000e+000
  +0.00000000000e+000
  +0.00000000000e+000
  +0.00000000000e+000
  +0.00000000000e+000
  +0.00000000000e+000
  +0.00000000000e+000
  +0.00000000000e+000
  +0.00000000000e+000
  +0.00000000000e+000
  +0.00000000000e+000
  +0.00000000000e+000
  +0.00000000000e+000
  +0.00000000000e+000
  +0.00000000000e+000
  +0.00000000000e+000
  +0.00000000000e+000
  +0.00000000000e+000
  +0.00000000000e+000
  +0.00000000000e+000
  +0.00000000000e+000
  +0.00000000000e+000
  +0.00000000000e+000
  +0.00000000000e+000
  +0.00000000000e+000
  +0.00000000000e+000
  +0.00000000000e+000
  +0.00000000000e+000
  +0.00000000000e+000
  +0.00000000000e+000
  +0.00000000000e+000
  +0.00000000000e+000
  +0.00000000000e+000
  +0.00000000000e+000
  +0.00000000000e+000
  +0.00000000000e+000
  +0.00000000000e+000
  +0.00000000000e+000
  +0.00000000000e+000
  +0.00000000000e+000
  +0.00000000000e+000
  +0.00000000000e+000
  +0.00000000000e+000
  +0.00000000000e+000
  +0.00000000000e+000
  +0.00000000000e+000
  +0.00000000000e+000
  +0.00000000000e+000
  +0.00000000000e+000
  +0.00000000000e+000
  +0.00000000000e+000
  +0.00000000000e+000
  +0.00000000000e+000
  +0.00000000000e+000
  +0.00000000000e+000
  +0.00000000000e+000
  +0.00000000000e+000
  +0.00000000000e+000
  +0.00000000000e+000
  +0.00000000000e+000
</dep>
<dep Pr1.I vol>
  +2.31155760676e-006
  +3.78166843357e-006
  +5.25177952573e-006
  +6.72189248354e-006
  +8.19209282535e-006
  +9.73639593400e-006
  +8.78633590263e-005
  +4.02661253283e-004
  +7.47859853328e-004
  +1.10143062475e-003
  +1.45926679804e-003
  +1.81977818888e-003
  +2.18215082957e-003
  +2.54590051949e-003
  +2.91071080437e-003
  +3.27636106624e-003
  +3.64269006583e-003
  +4.00957562079e-003
  +4.37692244631e-003
  +4.74465446554e-003
  +5.11270973034e-003
  +5.48103693930e-003
  +5.84959298109e-003
  +6.21834115483e-003
  +6.58724985323e-003
  +6.95629156786e-003
  +7.32544212761e-003
  +7.69468010494e-003
  +8.06398634718e-003
  +8.43334360303e-003
  +8.80273622040e-003
  +9.17214990051e-003
  +9.54157149524e-003
  +9.91098883990e-003
  +1.02803906112e-002
  +1.06497662107e-002
  +1.10191056635e-002
  +1.13883995327e-002
  +1.17576388452e-002
  +1.21268150293e-002
  +1.24959198575e-002
  +1.28649454000e-002
  +1.32338839800e-002
  +1.36027281370e-002
  +1.39714705938e-002
  +1.43401042248e-002
  +1.47086220302e-002
  +1.50770171112e-002
  +1.54452826472e-002
  +1.58134118756e-002
  +1.61813980741e-002
  +1.65492345412e-002
  +1.69169145813e-002
  +1.72844314898e-002
  +1.76517785376e-002
  +1.80189489584e-002
  +1.83859359354e-002
  +1.87527325888e-002
  +1.91193319639e-002
  +1.94857270197e-002
  +1.98519106167e-002
  +2.02178755069e-002
  +2.05836143220e-002
  +2.09491195631e-002
  +2.13143835893e-002
  +2.16793986077e-002
  +2.20441566619e-002
  +2.24086496222e-002
  +2.27728691728e-002
  +2.31368068033e-002
  +2.35004537953e-002
  +2.38638012121e-002
  +2.42268398869e-002
  +2.45895604110e-002
  +2.49519531215e-002
  +2.53140080887e-002
  +2.56757151039e-002
  +2.60370636656e-002
  +2.63980429665e-002
  +2.67586418798e-002
  +2.71188489433e-002
  +2.74786523468e-002
  +2.78380399155e-002
  +2.81969990942e-002
  +2.85555169412e-002
  +2.89135800768e-002
  +2.92711746961e-002
  +2.96282865804e-002
  +2.99849010068e-002
  +3.03410027574e-002
  +3.06965761515e-002
  +3.10516049450e-002
  +3.14060723660e-002
  +3.17599610355e-002
  +3.21132530157e-002
  +3.24659450114e-002
  +3.28179910719e-002
  +3.31693700749e-002
  +3.35201002269e-002
  +3.38701214848e-002
  +3.42194247449e-002
</dep>
<dep _net0.V vol>
  +3.32314398831e-001
  +3.33779344536e-001
  +3.35244292432e-001
  +3.36709262470e-001
  +3.38175320314e-001
  +3.40551456646e-001
  +5.10506069143e-001
  +8.67068545358e-001
  +1.22870230793e+000
  +1.59251893819e+000
  +1.95780691883e+000
  +2.32417947102e+000
  +2.69138684202e+000
  +3.05925436882e+000
  +3.42765363860e+000
  +3.79648677883e+000
  +4.16567707925e+000
  +4.53516303395e+000
  +4.90489437915e+000
  +5.27482935926e+000
  +5.64493278696e+000
  +6.01517462824e+000
  +6.38552895199e+000
  +6.75597313377e+000
  +7.12648724353e+000
  +7.49705356643e+000
  +7.86765622540e+000
  +8.23828087837e+000
  +8.60891447338e+000
  +8.97954504932e+000
  +9.35016157111e+000
  +9.72075379327e+000
  +1.00913121454e+001
  +1.04618276364e+001
  +1.08322917713e+001
  +1.12026964824e+001
  +1.15730340691e+001
  +1.19432971450e+001
  +1.23134785925e+001
  +1.26835715246e+001
  +1.30535692474e+001
  +1.34234652315e+001
  +1.37932530821e+001
  +1.41629265155e+001
  +1.45324793371e+001
  +1.49019054192e+001
  +1.52711986845e+001
  +1.56403530877e+001
  +1.60093626004e+001
  +1.63782211960e+001
  +1.67469228372e+001
  +1.71154614611e+001
  +1.74838309688e+001
  +1.78520252133e+001
  +1.82200379882e+001
  +1.85878630168e+001
  +1.89554939424e+001
  +1.93229243177e+001
  +1.96901475951e+001
  +2.00571571170e+001
  +2.04239461058e+001
  +2.07905076552e+001
  +2.11568347197e+001
  +2.15229201060e+001
  +2.18887564622e+001
  +2.22543362698e+001
  +2.26196518323e+001
  +2.29846952665e+001
  +2.33494584914e+001
  +2.37139332191e+001
  +2.40781109431e+001
  +2.44419829285e+001
  +2.48055402003e+001
  +2.51687735329e+001
  +2.55316734376e+001
  +2.58942301510e+001
  +2.62564336231e+001
  +2.66182735037e+001
  +2.69797391301e+001
  +2.73408195133e+001
  +2.77015033232e+001
  +2.80617788755e+001
  +2.84216341155e+001
  +2.87810566033e+001
  +2.91400334871e+001
  +2.94985515230e+001
  +2.98565970196e+001
  +3.02141558080e+001
  +3.05712132766e+001
  +3.09277543226e+001
  +3.12837633076e+001
  +3.16392240833e+001
  +3.19941199367e+001
  +3.23484335954e+001
  +3.27021471737e+001
  +3.30552679385e+001
  +3.34077288982e+001
  +3.37595132798e+001
  +3.41106583008e+001
  +3.44610850166e+001
  +3.48107906925e+001
</dep>
<dep _net1.V vol>
  +3.60000000000e+001
  +3.60000000000e+001
  +3.60000000000e+001
  +3.60000000000e+001
  +3.60000000000e+001
  +3.60000000000e+001
  +3.60000000000e+001
  +3.60000000000e+001
  +3.60000000000e+001
  +3.60000000000e+001
  +3.60000000000e+001
  +3.60000000000e+001
  +3.60000000000e+001
  +3.60000000000e+001
  +3.60000000000e+001
  +3.60000000000e+001
  +3.60000000000e+001
  +3.60000000000e+001
  +3.60000000000e+001
  +3.60000000000e+001
  +3.60000000000e+001
  +3.60000000000e+001
  +3.60000000000e+001
  +3.60000000000e+001
  +3.60000000000e+001
  +3.60000000000e+001
  +3.60000000000e+001
  +3.60000000000e+001
  +3.60000000000e+001
  +3.60000000000e+001
  +3.60000000000e+001
  +3.60000000000e+001
  +3.60000000000e+001
  +3.60000000000e+001
  +3.60000000000e+001
  +3.60000000000e+001
  +3.60000000000e+001
  +3.60000000000e+001
  +3.60000000000e+001
  +3.60000000000e+001
  +3.60000000000e+001
  +3.60000000000e+001
  +3.60000000000e+001
  +3.60000000000e+001
  +3.60000000000e+001
  +3.60000000000e+001
  +3.60000000000e+001
  +3.60000000000e+001
  +3.60000000000e+001
  +3.60000000000e+001
  +3.60000000000e+001
  +3.60000000000e+001
  +3.60000000000e+001
  +3.60000000000e+001
  +3.60000000000e+001
  +3.60000000000e+001
  +3.60000000000e+001
  +3.60000000000e+001
  +3.60000000000e+001
  +3.60000000000e+001
  +3.60000000000e+001
  +3.60000000000e+001
  +3.60000000000e+001
  +3.60000000000e+001
  +3.60000000000e+001
  +3.60000000000e+001
  +3.60000000000e+001
  +3.60000000000e+001
  +3.60000000000e+001
  +3.60000000000e+001
  +3.60000000000e+001
  +3.60000000000e+001
  +3.60000000000e+001
  +3.60000000000e+001
  +3.60000000000e+001
  +3.60000000000e+001
  +3.60000000000e+001
  +3.60000000000e+001
  +3.60000000000e+001
  +3.60000000000e+001
  +3.60000000000e+001
  +3.60000000000e+001
  +3.60000000000e+001
  +3.60000000000e+001
  +3.60000000000e+001
  +3.60000000000e+001
  +3.60000000000e+001
  +3.60000000000e+001
  +3.60000000000e+001
  +3.60000000000e+001
  +3.60000000000e+001
  +3.60000000000e+001
  +3.60000000000e+001
  +3.60000000000e+001
  +3.60000000000e+001
  +3.60000000000e+001
  +3.60000000000e+001
  +3.60000000000e+001
  +3.60000000000e+001
  +3.60000000000e+001
  +3.60000000000e+001
</dep>
<dep _net3.V vol>
  +3.01038982531e-003
  +3.01051429777e-003
  +3.01075347881e-003
  +3.01777441740e-003
  +3.44343087810e-003
  +1.64739702143e-001
  +7.68675822087e-001
  +1.16945349683e+000
  +1.54709861375e+000
  +1.92069228586e+000
  +2.29302866753e+000
  +2.66492237570e+000
  +3.03667628930e+000
  +3.40841506999e+000
  +3.78019044700e+000
  +4.15202129087e+000
  +4.52391082455e+000
  +4.89585464894e+000
  +5.26784470569e+000
  +5.63987130578e+000
  +6.01192419295e+000
  +6.38399309624e+000
  +6.75606801463e+000
  +7.12813935012e+000
  +7.50019796046e+000
  +7.87223516397e+000
  +8.24424272330e+000
  +8.61621281450e+000
  +8.98813799119e+000
  +9.36001114851e+000
  +9.73182548504e+000
  +1.01035744693e+001
  +1.04752518063e+001
  +1.08468514082e+001
  +1.12183673657e+001
  +1.15897939234e+001
  +1.19611254573e+001
  +1.23323564524e+001
  +1.27034814837e+001
  +1.30744952000e+001
  +1.34453923051e+001
  +1.38161675454e+001
  +1.41868156935e+001
  +1.45573315370e+001
  +1.49277098662e+001
  +1.52979454615e+001
  +1.56680330841e+001
  +1.60379674654e+001
  +1.64077432963e+001
  +1.67773552194e+001
  +1.71467978193e+001
  +1.75160656134e+001
  +1.78851530445e+001
  +1.82540544717e+001
  +1.86227641628e+001
  +1.89912762854e+001
  +1.93595849002e+001
  +1.97276839519e+001
  +2.00955672620e+001
  +2.04632285203e+001
  +2.08306612772e+001
  +2.11978589357e+001
  +2.15648147426e+001
  +2.19315217810e+001
  +2.22979729607e+001
  +2.26641610111e+001
  +2.30300784705e+001
  +2.33957176788e+001
  +2.37610707664e+001
  +2.41261296463e+001
  +2.44908860032e+001
  +2.48553312837e+001
  +2.52194566855e+001
  +2.55832531477e+001
  +2.59467113381e+001
  +2.63098216426e+001
  +2.66725741532e+001
  +2.70349586551e+001
  +2.73969646150e+001
  +2.77585811668e+001
  +2.81197970978e+001
  +2.84806008356e+001
  +2.88409804324e+001
  +2.92009235497e+001
  +2.95604174341e+001
  +2.99194489329e+001
  +3.02780044392e+001
  +3.06360698739e+001
  +3.09936307031e+001
  +3.13506718959e+001
