<Qucs Dataset 0.0.17>
<indep time 38>
  +1.00000000000e-003
  +1.01003009027e-003
  +1.02006018054e-003
  +1.03009027081e-003
  +1.04012036108e-003
  +1.05015045135e-003
  +1.06018054162e-003
  +1.07021063190e-003
  +1.08024072217e-003
  +1.09027081244e-003
  +1.10030090271e-003
  +1.11033099298e-003
  +1.12036108325e-003
  +1.13039117352e-003
  +1.14042126379e-003
  +1.15045135406e-003
  +1.16048144433e-003
  +1.17051153460e-003
  +1.18054162487e-003
  +1.19057171515e-003
  +1.20060180542e-003
  +1.21063189569e-003
  +1.22066198596e-003
  +1.23069207623e-003
  +1.24072216650e-003
  +1.25075225677e-003
  +1.26078234704e-003
  +1.27081243731e-003
  +1.28084252758e-003
  +1.29087261785e-003
  +1.30090270812e-003
  +1.31093279840e-003
  +1.32096288867e-003
  +1.33099297894e-003
  +1.34102306921e-003
  +1.35105315948e-003
  +1.36108324975e-003
  +1.37111334002e-003
</indep>
<dep Pr1.Vt time>
  +1.19549621673e+001
  +1.19549621671e+001
  +1.19549621669e+001
  +1.19549621667e+001
  +1.19549621665e+001
  +1.19549621663e+001
  +1.19549621661e+001
  +1.19549621660e+001
  +1.19549621663e+001
  +1.19549621697e+001
  +1.19549621951e+001
  +1.19549623581e+001
  +5.08229999275e+000
  -8.51724231468e-008
  -8.53003531120e-008
  +8.52645889530e-008
  +8.52632592493e-008
  -8.50964336808e-008
  -8.50960953927e-008
  +8.52619180817e-008
  +8.52618572758e-008
  +8.52617939541e-008
  +8.52617276339e-008
  +8.52616580417e-008
  +8.52615850200e-008
  +8.52615084854e-008
  +8.52614284106e-008
  +8.52613448189e-008
  +8.52612577884e-008
  +8.52611674701e-008
  +8.52610741275e-008
  +8.52609782266e-008
  +8.52608806549e-008
  +8.52607833332e-008
  +8.52606913719e-008
  -8.50941177060e-008
  +8.49846783116e-008
  -8.46420496539e-008
</dep>
<dep Pr4.Vt time>
  +8.55504049862e-008
  +8.55504010226e-008
  +8.55503970516e-008
  +8.55503930733e-008
  +8.55503890877e-008
  +8.55503850949e-008
  +8.55503810948e-008
  +8.55503770879e-008
  +8.55503730770e-008
  +8.55503690823e-008
  +8.55503652394e-008
  +8.55503623569e-008
  -1.50386307402e-008
  +1.19312538042e+001
  +1.19312538522e+001
  +1.19312509830e+001
  +1.19312509849e+001
  +1.19312535723e+001
  +1.19312535719e+001
  +1.19312509869e+001
  +1.19312509870e+001
  +1.19312509871e+001
  +1.19312509872e+001
  +1.19312509873e+001
  +1.19312509874e+001
  +1.19312509876e+001
  +1.19312509877e+001
  +1.19312509878e+001
  +1.19312509879e+001
  +1.19312509880e+001
  +1.19312509881e+001
  +1.19312509882e+001
  +1.19312509883e+001
  +1.19312509884e+001
  +1.19312509885e+001
  +1.19312535691e+001
  +1.19312513985e+001
  +1.19312532566e+001
</dep>
<dep Pr2.Vt time>
  +1.11079313937e+001
  +1.11079313938e+001
  +1.11079313939e+001
  +1.11079313940e+001
  +1.11079313941e+001
  +1.11079313942e+001
  +1.11079313943e+001
  +1.11079313944e+001
  +1.11079313942e+001
  +1.11079313924e+001
  +1.11079313786e+001
  +1.11079312904e+001
  +1.11411929476e+001
  +1.17571452565e+001
  +1.17811218520e+001
  +1.17823256527e+001
  +1.17823298296e+001
  +1.17823315225e+001
  +1.17823256920e+001
  +1.17823139939e+001
  +1.17823085482e+001
  +1.17823038906e+001
  +1.17823001712e+001
  +1.17822974750e+001
  +1.17822958509e+001
  +1.17822953245e+001
  +1.17822959044e+001
  +1.17822975835e+001
  +1.17823003374e+001
  +1.17823041194e+001
  +1.17823088478e+001
  +1.17823143776e+001
  +1.17823204320e+001
  +1.17823264116e+001
  +1.17823307195e+001
  +1.17823328733e+001
  +1.17808256821e+001
  +1.17542494172e+001
</dep>
<dep V1.It time>
  -1.85929921196e-001
  -1.85929921116e-001
  -1.85929921107e-001
  -1.85929921175e-001
  -1.85929921366e-001
  -1.85929922160e-001
  -1.85929928223e-001
  -1.85929982220e-001
  -1.85930447556e-001
  -1.85934179995e-001
  -1.85961594141e-001
  -1.86140296781e-001
  -1.51247455171e-001
  -2.52262752450e-001
  -2.58995306692e-001
  -2.59321874249e-001
  -2.59324154113e-001
  -2.59321027469e-001
  -2.59316683753e-001
  -2.59312256255e-001
  -2.59308265731e-001
  -2.59304869203e-001
  -2.59302172185e-001
  -2.59300234094e-001
  -2.59299088820e-001
  -2.59298753957e-001
  -2.59299234836e-001
  -2.59300525639e-001
  -2.59302608135e-001
  -2.59305447377e-001
  -2.59308981879e-001
  -2.59313101495e-001
  -2.59317593379e-001
  -2.59321989255e-001
  -2.59325018986e-001
  -2.59321559023e-001
  -2.57822561566e-001
  -2.51564433507e-001
</dep>
<dep Pr3.It time>
  +1.85929921196e-001
  +1.85929921116e-001
  +1.85929921107e-001
  +1.85929921175e-001
  +1.85929921366e-001
  +1.85929922160e-001
  +1.85929928223e-001
  +1.85929982220e-001
  +1.85930447556e-001
  +1.85934179995e-001
  +1.85961594141e-001
  +1.86140296781e-001
  +1.51247455171e-001
  +2.52262752450e-001
  +2.58995306692e-001
  +2.59321874249e-001
  +2.59324154113e-001
  +2.59321027469e-001
  +2.59316683753e-001
  +2.59312256255e-001
  +2.59308265731e-001
  +2.59304869203e-001
  +2.59302172185e-001
  +2.59300234094e-001
  +2.59299088820e-001
  +2.59298753957e-001
  +2.59299234836e-001
  +2.59300525639e-001
  +2.59302608135e-001
  +2.59305447377e-001
  +2.59308981879e-001
  +2.59313101495e-001
  +2.59317593379e-001
  +2.59321989255e-001
  +2.59325018986e-001
  +2.59321559023e-001
  +2.57822561566e-001
  +2.51564433507e-001
</dep>
<dep V2.It time>
  -8.44475138547e-008
  -8.68668414950e-008
  -8.91257515934e-008
  -9.13221057063e-008
  -9.37922370078e-008
  -9.76128220062e-008
  -1.06081089609e-007
  -1.28922243818e-007
  -1.93904919321e-007
  -3.78880677488e-007
  -9.05095380326e-007
  -2.43509216779e-006
  -6.20586272653e-006
  -1.66100783775e-005
  -4.99331987635e-005
  -3.74371631756e-003
  -8.68017841010e-003
  -1.39816237324e-002
  -1.91659133037e-002
  -2.39563820420e-002
  -2.81846865083e-002
  -3.17422366125e-002
  -3.45564512268e-002
  -3.65786066230e-002
  -3.77773830839e-002
  -3.81354154858e-002
  -3.76476064763e-002
  -3.63206582141e-002
  -3.41736804271e-002
  -3.12400621359e-002
  -2.75712213658e-002
  -2.32436166206e-002
  -1.83720395725e-002
  -1.31359607805e-002
  -7.83418490052e-003
  -2.99557970905e-003
  -2.76838915056e-005
  -1.09183012522e-005
</dep>
<dep _net2.Vt time>
  +1.20000203190e+001
  +1.20000202719e+001
  +1.20000201551e+001
  +1.20000199640e+001
  +1.20000196523e+001
  +1.20000187426e+001
  +1.20000125942e+001
  +1.19999587792e+001
  +1.19994958233e+001
  +1.19957825490e+001
  +1.19685046092e+001
  +1.17906987095e+001
  +1.12200271886e+001
  +1.11566529482e+001
  +1.11424152065e+001
  +1.11414811517e+001
  +1.11414765873e+001
  +1.11414838122e+001
  +1.11414915000e+001
  +1.11414975872e+001
  +1.11415046919e+001
  +1.11415107492e+001
  +1.11415155687e+001
  +1.11415190430e+001
  +1.11415211107e+001
  +1.11415217399e+001
  +1.11415209206e+001
  +1.11415186627e+001
  +1.11415149982e+001
  +1.11415099886e+001
  +1.11415037420e+001
  +1.11414964517e+001
  +1.11414884897e+001
  +1.11414806710e+001
  +1.11414751927e+001
  +1.11414825607e+001
  +1.11438580823e+001
  +1.11578383030e+001
</dep>
<dep _net3.Vt time>
  +1.11079313937e+001
  +1.11079313938e+001
  +1.11079313939e+001
  +1.11079313940e+001
  +1.11079313941e+001
  +1.11079313942e+001
  +1.11079313943e+001
  +1.11079313944e+001
  +1.11079313942e+001
  +1.11079313924e+001
  +1.11079313786e+001
  +1.11079312904e+001
  +1.11411929476e+001
  +1.17571452565e+001
  +1.17811218520e+001
  +1.17823256527e+001
  +1.17823298296e+001
  +1.17823315225e+001
  +1.17823256920e+001
  +1.17823139939e+001
  +1.17823085482e+001
  +1.17823038906e+001
  +1.17823001712e+001
  +1.17822974750e+001
  +1.17822958509e+001
  +1.17822953245e+001
  +1.17822959044e+001
  +1.17822975835e+001
  +1.17823003374e+001
  +1.17823041194e+001
  +1.17823088478e+001
  +1.17823143776e+001
  +1.17823204320e+001
  +1.17823264116e+001
  +1.17823307195e+001
  +1.17823328733e+001
  +1.17808256821e+001
  +1.17542494172e+001
</dep>
<dep _net4.Vt time>
  +1.20000000000e+001
  +1.20000000000e+001
  +1.20000000000e+001
  +1.20000000000e+001
  +1.20000000000e+001
  +1.20000000000e+001
  +1.20000000000e+001
  +1.20000000000e+001
  +1.20000000000e+001
  +1.20000000000e+001
  +1.20000000000e+001
  +1.20000000000e+001
  +1.20000000000e+001
  +1.20000000000e+001
  +1.20000000000e+001
  +1.20000000000e+001
  +1.20000000000e+001
  +1.20000000000e+001
  +1.20000000000e+001
  +1.20000000000e+001
  +1.20000000000e+001
  +1.20000000000e+001
  +1.20000000000e+001
  +1.20000000000e+001
  +1.20000000000e+001
  +1.20000000000e+001
  +1.20000000000e+001
  +1.20000000000e+001
  +1.20000000000e+001
  +1.20000000000e+001
  +1.20000000000e+001
  +1.20000000000e+001
  +1.20000000000e+001
  +1.20000000000e+001
  +1.20000000000e+001
  +1.20000000000e+001
  +1.20000000000e+001
  +1.20000000000e+001
</dep>
<dep _net5.Vt time>
  +1.19297556213e+001
  +1.19297556215e+001
  +1.19297556216e+001
  +1.19297556218e+001
  +1.19297556219e+001
  +1.19297556220e+001
  +1.19297556222e+001
  +1.19297556223e+001
  +1.19297556223e+001
  +1.19297556214e+001
  +1.19297556144e+001
  +1.19297555688e+001
  +1.19472903724e+001
  +1.10986384148e+001
  +1.10986384068e+001
  +1.10986388713e+001
  +1.10986388710e+001
  +1.10986384530e+001
  +1.10986384531e+001
  +1.10986388707e+001
  +1.10986388707e+001
  +1.10986388706e+001
  +1.10986388706e+001
  +1.10986388706e+001
  +1.10986388706e+001
  +1.10986388706e+001
  +1.10986388706e+001
  +1.10986388705e+001
  +1.10986388705e+001
  +1.10986388705e+001
  +1.10986388705e+001
  +1.10986388705e+001
  +1.10986388704e+001
  +1.10986388704e+001
  +1.10986388704e+001
  +1.10986384535e+001
  +1.10986388028e+001
  +1.10986385051e+001
</dep>
<dep _net7.Vt time>
  -2.44921270764e-016
  +6.29792080813e-002
  +1.25708368458e-001
  +1.87938426195e-001
  +2.49422307955e-001
  +3.09915902959e-001
  +3.69179032187e-001
  +4.26976401961e-001
  +4.83078538140e-001
  +5.37262697206e-001
  +5.89313750627e-001
  +6.39025038986e-001
  +6.86199192485e-001
  +7.30648914566e-001
  +7.72197725544e-001
  +8.10680663279e-001
  +8.45944938135e-001
  +8.77850539604e-001
  +9.06270792190e-001
  +9.31092858352e-001
  +9.52218186508e-001
  +9.69562902312e-001
  +9.83058141666e-001
  +9.92650324130e-001
  +9.98301365657e-001
  +9.99988829795e-001
  +9.97706016768e-001
  +9.91461990079e-001
  +9.81281540520e-001
  +9.67205087750e-001
  +9.49288519812e-001
  +9.27602971240e-001
  +9.02234540636e-001
  +8.73283948825e-001
  +8.40866138964e-001
  +8.05109820181e-001
  +7.66156956558e-001
  +7.24162203488e-001
</dep>
<dep _net8.Vt time>
  +1.20000210672e+001
  +1.20000211002e+001
  +1.20000209917e+001
  +1.20000207329e+001
  +1.20000202305e+001
  +1.20000185273e+001
  +1.20000063157e+001
  +1.19998985042e+001
  +1.19989702117e+001
  +1.19915244971e+001
  +1.19368324009e+001
  +1.15803237914e+001
  +1.00807360158e+001
  +6.87650922043e+000
  +3.69483663783e-001
  +5.40324390784e-002
  +5.17897980688e-002
  +5.49254472453e-002
  +5.92185414468e-002
  +6.35503184850e-002
  +6.74934915252e-002
  +7.08495012556e-002
  +7.35141463452e-002
  +7.54287512076e-002
  +7.65598520431e-002
  +7.68900823639e-002
  +7.64141842578e-002
  +7.51379143604e-002
  +7.30792938505e-002
  +7.02728638854e-002
  +6.67794009753e-002
  +6.27077928580e-002
  +5.82684927530e-002
  +5.39245939118e-002
  +5.09324655953e-002
  +5.44061183961e-002
  +1.54072643072e+000
  +7.54704974494e+000
</dep>
<dep _net1.Vt time>
  +1.19549621673e+001
  +1.19549621671e+001
  +1.19549621669e+001
  +1.19549621667e+001
  +1.19549621665e+001
  +1.19549621663e+001
  +1.19549621661e+001
  +1.19549621660e+001
  +1.19549621663e+001
  +1.19549621697e+001
  +1.19549621951e+001
  +1.19549623581e+001
  +5.08229999275e+000
  -8.51724231468e-008
  -8.53003531120e-008
  +8.52645889530e-008
  +8.52632592493e-008
  -8.50964336808e-008
  -8.50960953927e-008
  +8.52619180817e-008
  +8.52618572758e-008
  +8.52617939541e-008
  +8.52617276339e-008
  +8.52616580417e-008
  +8.52615850200e-008
  +8.52615084854e-008
  +8.52614284106e-008
  +8.52613448189e-008
  +8.52612577884e-008
  +8.52611674701e-008
  +8.52610741275e-008
  +8.52609782266e-008
  +8.52608806549e-008
  +8.52607833332e-008
  +8.52606913719e-008
  -8.50941177060e-008
  +8.49846783116e-008
  -8.46420496539e-008
</dep>
<dep _net6.Vt time>
  +8.55504049862e-008
  +8.55504010226e-008
  +8.55503970516e-008
  +8.55503930733e-008
  +8.55503890877e-008
  +8.55503850949e-008
  +8.55503810948e-008
  +8.55503770879e-008
  +8.55503730770e-008
  +8.55503690823e-008
  +8.55503652394e-008
  +8.55503623569e-008
  -1.50386307402e-008
  +1.19312538042e+001
  +1.19312538522e+001
  +1.19312509830e+001
  +1.19312509849e+001
  +1.19312535723e+001
  +1.19312535719e+001
  +1.19312509869e+001
  +1.19312509870e+001
  +1.19312509871e+001
  +1.19312509872e+001
  +1.19312509873e+001
  +1.19312509874e+001
  +1.19312509876e+001
  +1.19312509877e+001
  +1.19312509878e+001
  +1.19312509879e+001
  +1.19312509880e+001
  +1.19312509881e+001
  +1.19312509882e+001
  +1.19312509883e+001
  +1.19312509884e+001
  +1.19312509885e+001
  +1.19312535691e+001
  +1.19312513985e+001
  +1.19312532566e+001
</dep>
<dep _net0.Vt time>
  +1.20000000000e+001
  +1.20000000000e+001
  +1.20000000000e+001
  +1.20000000000e+001
  +1.20000000000e+001
  +1.20000000000e+001
  +1.20000000000e+001
  +1.20000000000e+001
  +1.20000000000e+001
  +1.20000000000e+001
  +1.20000000000e+001
  +1.20000000000e+001
  +1.20000000000e+001
  +1.20000000000e+001
  +1.20000000000e+001
  +1.20000000000e+001
  +1.20000000000e+001
  +1.20000000000e+001
  +1.20000000000e+001
  +1.20000000000e+001
  +1.20000000000e+001
  +1.20000000000e+001
  +1.20000000000e+001
  +1.20000000000e+001
  +1.20000000000e+001
  +1.20000000000e+001
  +1.20000000000e+001
  +1.20000000000e+001
  +1.20000000000e+001
  +1.20000000000e+001
  +1.20000000000e+001
  +1.20000000000e+001
  +1.20000000000e+001
  +1.20000000000e+001
  +1.20000000000e+001
  +1.20000000000e+001
  +1.20000000000e+001
  +1.20000000000e+001
</dep>
<indep Pr1.V 1>
  +1.19549620147e+001
</indep>
<indep Pr4.V 1>
  +2.74653502269e-013
</indep>
<indep Pr2.V 1>
  +1.11079314758e+001
</indep>
<indep V1.I 1>
  -1.85929923222e-001
</indep>
<indep Pr3.I 1>
  +1.85929923222e-001
</indep>
<indep V2.I 1>
  +4.59374999646e-014
</indep>
<indep _net2.V 1>
  +1.19999999999e+001
</indep>
<indep _net3.V 1>
  +1.11079314758e+001
</indep>
<indep _net4.V 1>
  +1.20000000000e+001
</indep>
<indep _net5.V 1>
  +1.19297557497e+001
</indep>
<indep _net7.V 1>
  +0.00000000000e+000
</indep>
<indep _net8.V 1>
  +1.19999999998e+001
</indep>
<indep _net1.V 1>
  +1.19549620147e+001
</indep>
<indep _net6.V 1>
  +2.74653502269e-013
</indep>
<indep _net0.V 1>
  +1.20000000000e+001
</indep>
