<Qucs Dataset 0.0.17>
<indep frequency 200>
  +3.00000000000e+007
  +3.01820536051e+007
  +3.03652119940e+007
  +3.05494818712e+007
  +3.07348699814e+007
  +3.09213831109e+007
  +3.11090280865e+007
  +3.12978117770e+007
  +3.14877410925e+007
  +3.16788229853e+007
  +3.18710644496e+007
  +3.20644725223e+007
  +3.22590542829e+007
  +3.24548168539e+007
  +3.26517674010e+007
  +3.28499131332e+007
  +3.30492613037e+007
  +3.32498192092e+007
  +3.34515941911e+007
  +3.36545936351e+007
  +3.38588249717e+007
  +3.40642956767e+007
  +3.42710132712e+007
  +3.44789853217e+007
  +3.46882194410e+007
  +3.48987232878e+007
  +3.51105045674e+007
  +3.53235710318e+007
  +3.55379304802e+007
  +3.57535907589e+007
  +3.59705597620e+007
  +3.61888454314e+007
  +3.64084557573e+007
  +3.66293987782e+007
  +3.68516825815e+007
  +3.70753153038e+007
  +3.73003051308e+007
  +3.75266602982e+007
  +3.77543890914e+007
  +3.79834998461e+007
  +3.82140009488e+007
  +3.84459008368e+007
  +3.86792079984e+007
  +3.89139309737e+007
  +3.91500783544e+007
  +3.93876587846e+007
  +3.96266809605e+007
  +3.98671536314e+007
  +4.01090855995e+007
  +4.03524857206e+007
  +4.05973629039e+007
  +4.08437261130e+007
  +4.10915843659e+007
  +4.13409467350e+007
  +4.15918223480e+007
  +4.18442203881e+007
  +4.20981500939e+007
  +4.23536207603e+007
  +4.26106417386e+007
  +4.28692224367e+007
  +4.31293723198e+007
  +4.33911009104e+007
  +4.36544177887e+007
  +4.39193325933e+007
  +4.41858550210e+007
  +4.44539948277e+007
  +4.47237618284e+007
  +4.49951658975e+007
  +4.52682169697e+007
  +4.55429250395e+007
  +4.58193001625e+007
  +4.60973524551e+007
  +4.63770920951e+007
  +4.66585293221e+007
  +4.69416744379e+007
  +4.72265378066e+007
  +4.75131298554e+007
  +4.78014610747e+007
  +4.80915420186e+007
  +4.83833833053e+007
  +4.86769956172e+007
  +4.89723897018e+007
  +4.92695763716e+007
  +4.95685665050e+007
  +4.98693710461e+007
  +5.01720010055e+007
  +5.04764674608e+007
  +5.07827815566e+007
  +5.10909545052e+007
  +5.14009975871e+007
  +5.17129221510e+007
  +5.20267396146e+007
  +5.23424614649e+007
  +5.26600992585e+007
  +5.29796646223e+007
  +5.33011692537e+007
  +5.36246249210e+007
  +5.39500434640e+007
  +5.42774367943e+007
  +5.46068168957e+007
  +5.49381958250e+007
  +5.52715857120e+007
  +5.56069987599e+007
  +5.59444472464e+007
  +5.62839435232e+007
  +5.66255000175e+007
  +5.69691292315e+007
  +5.73148437433e+007
  +5.76626562077e+007
  +5.80125793557e+007
  +5.83646259962e+007
  +5.87188090153e+007
  +5.90751413776e+007
  +5.94336361262e+007
  +5.97943063836e+007
  +6.01571653516e+007
  +6.05222263125e+007
  +6.08895026288e+007
  +6.12590077443e+007
  +6.16307551845e+007
  +6.20047585567e+007
  +6.23810315510e+007
  +6.27595879405e+007
  +6.31404415818e+007
  +6.35236064157e+007
  +6.39090964676e+007
  +6.42969258480e+007
  +6.46871087529e+007
  +6.50796594646e+007
  +6.54745923521e+007
  +6.58719218714e+007
  +6.62716625665e+007
  +6.66738290694e+007
  +6.70784361010e+007
  +6.74854984715e+007
  +6.78950310812e+007
  +6.83070489204e+007
  +6.87215670707e+007
  +6.91386007052e+007
  +6.95581650888e+007
  +6.99802755795e+007
  +7.04049476280e+007
  +7.08321967791e+007
  +7.12620386718e+007
  +7.16944890400e+007
  +7.21295637132e+007
  +7.25672786168e+007
  +7.30076497730e+007
  +7.34506933010e+007
  +7.38964254181e+007
  +7.43448624398e+007
  +7.47960207808e+007
  +7.52499169551e+007
  +7.57065675773e+007
  +7.61659893625e+007
  +7.66281991275e+007
  +7.70932137910e+007
  +7.75610503743e+007
  +7.80317260022e+007
  +7.85052579032e+007
  +7.89816634106e+007
  +7.94609599626e+007
  +7.99431651035e+007
  +8.04282964838e+007
  +8.09163718614e+007
  +8.14074091017e+007
  +8.19014261787e+007
  +8.23984411753e+007
  +8.28984722843e+007
  +8.34015378089e+007
  +8.39076561632e+007
  +8.44168458732e+007
  +8.49291255773e+007
  +8.54445140269e+007
  +8.59630300874e+007
  +8.64846927385e+007
  +8.70095210752e+007
  +8.75375343082e+007
  +8.80687517649e+007
  +8.86031928901e+007
  +8.91408772464e+007
  +8.96818245152e+007
  +9.02260544974e+007
  +9.07735871139e+007
  +9.13244424067e+007
  +9.18786405391e+007
  +9.24362017972e+007
  +9.29971465898e+007
  +9.35614954499e+007
  +9.41292690347e+007
  +9.47004881272e+007
  +9.52751736361e+007
  +9.58533465974e+007
  +9.64350281743e+007
  +9.70202396589e+007
  +9.76090024722e+007
  +9.82013381652e+007
  +9.87972684198e+007
  +9.93968150495e+007
  +1.00000000000e+008
</indep>
<dep dBs21 frequency>
  -8.58730021794e-002
  -8.05636264259e-002
  -7.54027073149e-002
  -7.03914538487e-002
  -6.55311900676e-002
  -6.08233650588e-002
  -5.62695638777e-002
  -5.18715194593e-002
  -4.76311256041e-002
  -4.35504511277e-002
  -3.96317552708e-002
  -3.58775044731e-002
  -3.22903906227e-002
  -2.88733509000e-002
  -2.56295893423e-002
  -2.25626002681e-002
  -1.96761937035e-002
  -1.69745229686e-002
  -1.44621145876e-002
  -1.21439006994e-002
  -1.00252541564e-002
  -8.11202650756e-003
  -6.41058907859e-003
  -4.92787736929e-003
  -3.67143900265e-003
  -2.64948547206e-003
  -1.87094794483e-003
  -1.34553739243e-003
  -1.08380932945e-003
  -1.09723345418e-003
  -1.39826849404e-003
  -2.00044256818e-003
  -2.91843938717e-003
  -4.16819061521e-003
  -5.76697472405e-003
  -7.73352266776e-003
  -1.00881307047e-002
  -1.28527806854e-002
  -1.60512681130e-002
  -1.97093382625e-002
  -2.38548306234e-002
  -2.85178318908e-002
  -3.37308376915e-002
  -3.95289231745e-002
  -4.59499225291e-002
  -5.30346174128e-002
  -6.08269341734e-002
  -6.93741496379e-002
  -7.87271051017e-002
  -8.89404280014e-002
  -1.00072760573e-001
  -1.12186994592e-001
  -1.25350511074e-001
  -1.39635423532e-001
  -1.55118823145e-001
  -1.71883023831e-001
  -1.90015804931e-001
  -2.09610648816e-001
  -2.30766970364e-001
  -2.53590334876e-001
  -2.78192660576e-001
  -3.04692401480e-001
  -3.33214706038e-001
  -3.63891546609e-001
  -3.96861814578e-001
  -4.32271375703e-001
  -4.70273080222e-001
  -5.11026722259e-001
  -5.54698943363e-001
  -6.01463075369e-001
  -6.51498918542e-001
  -7.04992451887e-001
  -7.62135473832e-001
  -8.23125173192e-001
  -8.88163632330e-001
  -9.57457266994e-001
  -1.03121621016e+000
  -1.10965365060e+000
  -1.19298514077e+000
  -1.28142789253e+000
  -1.37520008433e+000
  -1.47452020765e+000
  -1.57960648661e+000
  -1.69067640926e+000
  -1.80794641546e+000
  -1.93163179182e+000
  -2.06194683035e+000
  -2.19910531404e+000
  -2.34332139918e+000
  -2.49481097152e+000
  -2.65379356077e+000
  -2.82049490629e+000
  -2.99515027415e+000
  -3.17800863293e+000
  -3.36933779859e+000
  -3.56943065382e+000
  -3.77861252540e+000
  -3.99724974687e+000
  -4.22575931330e+000
  -4.46461929220e+000
  -4.71437918674e+000
  -4.97566856263e+000
  -5.24920059882e+000
  -5.53576416011e+000
  -5.83619233825e+000
  -6.15128503320e+000
  -6.48164429802e+000
  -6.82734768801e+000
  -7.18732818601e+000
  -7.55824338637e+000
  -7.93252138897e+000
  -8.29528971390e+000
  -8.62043940341e+000
  -8.86804102027e+000
  -8.98926159187e+000
  -8.94689740361e+000
  -8.74785272086e+000
  -8.45877152453e+000
  -8.17832878669e+000
  -7.98715241251e+000
  -7.92013430636e+000
  -7.97284759354e+000
  -8.12192081264e+000
  -8.34103430691e+000
  -8.60823731350e+000
  -8.90751928270e+000
  -9.22799267695e+000
  -9.56253904149e+000
  -9.90661596234e+000
  -1.02573782957e+001
  -1.06130788340e+001
  -1.09726739999e+001
  -1.13355685264e+001
  -1.17014509882e+001
  -1.20701877700e+001
  -1.24417544256e+001
  -1.28161909777e+001
  -1.31935726166e+001
  -1.35739903693e+001
  -1.39575382818e+001
  -1.43443049025e+001
  -1.47343676426e+001
  -1.51277890947e+001
  -1.55246147085e+001
  -1.59248714335e+001
  -1.63285670663e+001
  -1.67356901295e+001
  -1.71462101605e+001
  -1.75600783249e+001
  -1.79772282890e+001
  -1.83975773027e+001
  -1.88210274471e+001
  -1.92474670127e+001
  -1.96767719718e+001
  -2.01088075147e+001
  -2.05434296206e+001
  -2.09804866359e+001
  -2.14198208356e+001
  -2.18612699450e+001
  -2.23046686033e+001
  -2.27498497522e+001
  -2.31966459363e+001
  -2.36448905052e+001
  -2.40944187092e+001
  -2.45450686847e+001
  -2.49966823267e+001
  -2.54491060487e+001
  -2.59021914318e+001
  -2.63557957671e+001
  -2.68097824960e+001
  -2.72640215549e+001
  -2.77183896306e+001
  -2.81727703344e+001
  -2.86270543013e+001
  -2.90811392238e+001
  -2.95349298261e+001
  -2.99883377866e+001
  -3.04412816167e+001
  -3.08936865013e+001
  -3.13454841071e+001
  -3.17966123668e+001
  -3.22470152403e+001
  -3.26966424625e+001
  -3.31454492771e+001
  -3.35933961645e+001
  -3.40404485639e+001
  -3.44865765944e+001
  -3.49317547765e+001
  -3.53759617572e+001
  -3.58191800392e+001
  -3.62613957172e+001
  -3.67025982204e+001
  -3.71427800652e+001
  -3.75819366156e+001
  -3.80200658544e+001
  -3.84571681641e+001
  -3.88932461185e+001
  -3.93283042849e+001
  -3.97623490369e+001
  -4.01953883775e+001
</dep>
<dep dBs31 frequency>
  -5.50730743647e+001
  -5.46657530904e+001
  -5.42579754804e+001
  -5.38497284048e+001
  -5.34409984315e+001
  -5.30317718257e+001
  -5.26220345498e+001
  -5.22117722646e+001
  -5.18009703318e+001
  -5.13896138177e+001
  -5.09776874979e+001
  -5.05651758645e+001
  -5.01520631341e+001
  -4.97383332579e+001
  -4.93239699348e+001
  -4.89089566253e+001
  -4.84932765690e+001
  -4.80769128047e+001
  -4.76598481926e+001
  -4.72420654411e+001
  -4.68235471357e+001
  -4.64042757725e+001
  -4.59842337954e+001
  -4.55634036378e+001
  -4.51417677687e+001
  -4.47193087444e+001
  -4.42960092643e+001
  -4.38718522341e+001
  -4.34468208336e+001
  -4.30208985916e+001
  -4.25940694677e+001
  -4.21663179409e+001
  -4.17376291064e+001
  -4.13079887796e+001
  -4.08773836093e+001
  -4.04458011993e+001
  -4.00132302388e+001
  -3.95796606431e+001
  -3.91450837028e+001
  -3.87094922450e+001
  -3.82728808024e+001
  -3.78352457948e+001
  -3.73965857204e+001
  -3.69569013576e+001
  -3.65161959775e+001
  -3.60744755665e+001
  -3.56317490597e+001
  -3.51880285827e+001
  -3.47433297030e+001
  -3.42976716892e+001
  -3.38510777776e+001
  -3.34035754435e+001
  -3.29551966774e+001
  -3.25059782628e+001
  -3.20559620537e+001
  -3.16051952497e+001
  -3.11537306646e+001
  -3.07016269857e+001
  -3.02489490196e+001
  -2.97957679205e+001
  -2.93421613952e+001
  -2.88882138796e+001
  -2.84340166818e+001
  -2.79796680837e+001
  -2.75252733958e+001
  -2.70709449569e+001
  -2.66168020722e+001
  -2.61629708815e+001
  -2.57095841498e+001
  -2.52567809740e+001
  -2.48047063970e+001
  -2.43535109235e+001
  -2.39033499329e+001
  -2.34543829824e+001
  -2.30067729996e+001
  -2.25606853626e+001
  -2.21162868677e+001
  -2.16737445894e+001
  -2.12332246371e+001
  -2.07948908185e+001
  -2.03589032198e+001
  -1.99254167191e+001
  -1.94945794490e+001
  -1.90665312298e+001
  -1.86414019964e+001
  -1.82193102437e+001
  -1.78003615194e+001
  -1.73846469941e+001
  -1.69722421392e+001
  -1.65632055512e+001
  -1.61575779577e+001
  -1.57553814538e+001
  -1.53566190224e+001
  -1.49612744120e+001
  -1.45693124698e+001
  -1.41806800711e+001
  -1.37953078509e+001
  -1.34131130473e+001
  -1.30340039247e+001
  -1.26578864953e+001
  -1.22846746447e+001
  -1.19143053739e+001
  -1.15467618307e+001
  -1.11821083091e+001
  -1.08205437911e+001
  -1.04624843806e+001
  -1.01086908980e+001
  -9.76046696526e+000
  -9.41996611831e+000
  -9.09066371509e+000
  -8.77806568653e+000
  -8.49072152403e+000
  -8.24152413502e+000
  -8.04897268307e+000
  -7.93729621793e+000
  -7.93292913876e+000
  -8.05367907782e+000
  -8.28960130349e+000
  -8.58555322554e+000
  -8.84779532558e+000
  -8.98528242371e+000
  -8.95590791302e+000
  -8.77520716117e+000
  -8.48896077944e+000
  -8.14370415800e+000
  -7.77349981193e+000
  -7.39922434482e+000
  -7.03221286062e+000
  -6.67794167655e+000
  -6.33860681169e+000
  -6.01468783029e+000
  -5.70582966952e+000
  -5.41131771533e+000
  -5.13032377620e+000
  -4.86202703678e+000
  -4.60566830312e+000
  -4.36056948080e+000
  -4.12613555564e+000
  -3.90184831442e+000
  -3.68725667966e+000
  -3.48196617289e+000
  -3.28562875155e+000
  -3.09793358778e+000
  -2.91859900165e+000
  -2.74736558010e+000
  -2.58399042441e+000
  -2.42824243020e+000
  -2.27989849088e+000
  -2.13874051456e+000
  -2.00455314969e+000
  -1.87712212200e+000
  -1.75623309338e+000
  -1.64167096127e+000
  -1.53321952423e+000
  -1.43066144683e+000
  -1.33377846324e+000
  -1.24235176535e+000
  -1.15616252746e+000
  -1.07499252510e+000
  -9.98624811543e-001
  -9.26844420715e-001
  -8.59439070405e-001
  -7.96199844525e-001
  -7.36921837524e-001
  -6.81404748141e-001
  -6.29453413320e-001
  -5.80878276226e-001
  -5.35495785112e-001
  -4.93128722039e-001
  -4.53606462367e-001
  -4.16765167456e-001
  -3.82447914163e-001
  -3.50504765565e-001
  -3.20792787936e-001
  -2.93176019318e-001
  -2.67525395184e-001
  -2.43718636685e-001
  -2.21640106817e-001
  -2.01180639622e-001
  -1.82237347211e-001
  -1.64713409078e-001
  -1.48517847753e-001
  -1.33565294481e-001
  -1.19775748192e-001
  -1.07074330651e-001
  -9.53910403261e-002
  -8.46605071064e-002
  -7.48217497467e-002
  -6.58179375588e-002
  -5.75961576288e-002
  -5.01071885830e-002
  -4.33052817109e-002
  -3.71479500589e-002
  -3.15957659413e-002
  -2.66121671690e-002
  -2.21632721707e-002
  -1.82177040746e-002
  -1.47464237288e-002
  -1.17225715647e-002
  -9.12131814579e-003
</dep>
<dep dBs32 frequency>
  -5.50992782355e+001
  -5.46935464988e+001
  -5.42874423793e+001
  -5.38809566399e+001
  -5.34740798775e+001
  -5.30668025226e+001
  -5.26591148405e+001
  -5.22510069314e+001
  -5.18424687319e+001
  -5.14334900173e+001
  -5.10240604043e+001
  -5.06141693541e+001
  -5.02038061772e+001
  -4.97929600383e+001
  -4.93816199623e+001
  -4.89697748422e+001
  -4.85574134472e+001
  -4.81445244323e+001
  -4.77310963499e+001
  -4.73171176624e+001
  -4.69025767564e+001
  -4.64874619591e+001
  -4.60717615564e+001
  -4.56554638125e+001
  -4.52385569932e+001
  -4.48210293901e+001
  -4.44028693479e+001
  -4.39840652946e+001
  -4.35646057744e+001
  -4.31444794839e+001
  -4.27236753109e+001
  -4.23021823772e+001
  -4.18799900850e+001
  -4.14570881669e+001
  -4.10334667395e+001
  -4.06091163614e+001
  -4.01840280954e+001
  -3.97581935748e+001
  -3.93316050739e+001
  -3.89042555833e+001
  -3.84761388886e+001
  -3.80472496547e+001
  -3.76175835124e+001
  -3.71871371509e+001
  -3.67559084116e+001
  -3.63238963864e+001
  -3.58911015181e+001
  -3.54575257018e+001
  -3.50231723875e+001
  -3.45880466820e+001
  -3.41521554489e+001
  -3.37155074048e+001
  -3.32781132101e+001
  -3.28399855512e+001
  -3.24011392127e+001
  -3.19615911346e+001
  -3.15213604531e+001
  -3.10804685187e+001
  -3.06389388880e+001
  -3.01967972837e+001
  -2.97540715175e+001
  -2.93107913679e+001
  -2.88669884071e+001
  -2.84226957689e+001
  -2.79779478485e+001
  -2.75327799260e+001
  -2.70872277032e+001
  -2.66413267441e+001
  -2.61951118086e+001
  -2.57486160688e+001
  -2.53018701955e+001
  -2.48549013070e+001
  -2.44077317666e+001
  -2.39603778205e+001
  -2.35128480654e+001
  -2.30651417378e+001
  -2.26172468162e+001
  -2.21691379311e+001
  -2.17207740740e+001
  -2.12720961048e+001
  -2.08230240499e+001
  -2.03734541908e+001
  -1.99232559389e+001
  -1.94722684939e+001
  -1.90202972808e+001
  -1.85671101605e+001
  -1.81124334042e+001
  -1.76559474192e+001
  -1.71972822093e+001
  -1.67360125467e+001
  -1.62716528297e+001
  -1.58036515934e+001
  -1.53313856431e+001
  -1.48541537808e+001
  -1.43711701124e+001
  -1.38815569504e+001
  -1.33843373861e+001
  -1.28784277043e+001
  -1.23626299857e+001
  -1.18356255262e+001
  -1.12959701720e+001
  -1.07420934362e+001
  -1.01723045197e+001
  -9.58481040177e+000
  -8.97775451885e+000
  -8.34929000501e+000
  -7.69771034924e+000
  -7.02167458816e+000
  -6.32058653005e+000
  -5.59522086559e+000
  -4.84873354032e+000
  -4.08823769976e+000
  -3.32712204950e+000
  -2.58810253739e+000
  -1.90635923459e+000
  -1.33071981470e+000
  -9.19117327151e-001
  -7.24998431216e-001
  -7.77682643780e-001
  -1.06891636814e+000
  -1.55684208619e+000
  -2.18388381934e+000
  -2.89485478932e+000
  -3.64656945627e+000
  -4.40943759922e+000
  -5.16508749060e+000
  -5.90311558711e+000
  -6.61831695227e+000
  -7.30869666804e+000
  -7.97415666529e+000
  -8.61566751284e+000
  -9.23476053661e+000
  -9.83322275931e+000
  -1.04129173690e+001
  -1.09756808568e+001
  -1.15232665456e+001
  -1.20573159314e+001
  -1.25793464950e+001
  -1.30907490841e+001
  -1.35927906866e+001
  -1.40866200784e+001
  -1.45732748510e+001
  -1.50536889459e+001
  -1.55287002058e+001
  -1.59990576785e+001
  -1.64654285519e+001
  -1.69284046731e+001
  -1.73885086515e+001
  -1.78461995669e+001
  -1.83018783139e+001
  -1.87558926129e+001
  -1.92085417188e+001
  -1.96600808518e+001
  -2.01107253697e+001
  -2.05606546979e+001
  -2.10100160266e+001
  -2.14589277840e+001
  -2.19074828898e+001
  -2.23557517933e+001
  -2.28037852981e+001
  -2.32516171776e+001
  -2.36992665839e+001
  -2.41467402536e+001
  -2.45940345172e+001
  -2.50411371168e+001
  -2.54880288403e+001
  -2.59346849805e+001
  -2.63810766271e+001
  -2.68271718036e+001
  -2.72729364577e+001
  -2.77183353172e+001
  -2.81633326209e+001
  -2.86078927379e+001
  -2.90519806827e+001
  -2.94955625398e+001
  -2.99386058045e+001
  -3.03810796527e+001
  -3.08229551448e+001
  -3.12642053759e+001
  -3.17048055759e+001
  -3.21447331699e+001
  -3.25839678026e+001
  -3.30224913333e+001
  -3.34602878075e+001
  -3.38973434075e+001
  -3.43336463876e+001
  -3.47691869969e+001
  -3.52039573923e+001
  -3.56379515446e+001
  -3.60711651401e+001
  -3.65035954790e+001
  -3.69352413729e+001
  -3.73661030423e+001
  -3.77961820147e+001
  -3.82254810254e+001
  -3.86540039204e+001
  -3.90817555631e+001
  -3.95087417440e+001
  -3.99349690952e+001
  -4.03604450080e+001
</dep>
<dep S[2,2] frequency>
  -1.32293800512e-001+j4.55416902651e-002
  -1.26495585214e-001+j4.87332862244e-002
  -1.20621732129e-001+j5.15648485006e-002
  -1.14691663660e-001+j5.40306878996e-002
  -1.08725435298e-001+j5.61260191939e-002
  -1.02743708275e-001+j5.78470160592e-002
  -9.67677187300e-002+j5.91908666146e-002
  -9.08192432227e-002+j6.01558294402e-002
  -8.49205604230e-002+j6.07412899322e-002
  -7.90944087960e-002+j6.09478168443e-002
  -7.33639401053e-002+j6.07772188468e-002
  -6.77526685504e-002+j6.02326009212e-002
  -6.22844153543e-002+j5.93184203911e-002
  -5.69832486116e-002+j5.80405423721e-002
  -5.18734182101e-002+j5.64062944038e-002
  -4.69792856324e-002+j5.44245200082e-002
  -4.23252484471e-002+j5.21056308934e-002
  -3.79356592954e-002+j4.94616575015e-002
  -3.38347391831e-002+j4.65062975709e-002
  -3.00464848854e-002+j4.32549623565e-002
  -2.65945702770e-002+j3.97248201214e-002
  -2.35022414022e-002+j3.59348364814e-002
  -2.07922051066e-002+j3.19058111472e-002
  -1.84865110555e-002+j2.76604105728e-002
  -1.66064269794e-002+j2.32231959772e-002
  -1.51723069913e-002+j1.86206461609e-002
  -1.42034528422e-002+j1.38811744912e-002
  -1.37179679963e-002+j9.03513938010e-003
  -1.37326044297e-002+j4.11484751920e-003
  -1.42626020888e-002-j8.45450920643e-004
  -1.53215209723e-002-j5.80957598484e-003
  -1.69210658478e-002-j1.07394414529e-002
  -1.90709036590e-002-j1.55950891806e-002
  -2.17784737405e-002-j2.03347353470e-002
  -2.50487910252e-002-j2.49148297691e-002
  -2.88842425128e-002-j2.92901295352e-002
  -3.32843773635e-002-j3.34137882961e-002
  -3.82456910948e-002-j3.72374626505e-002
  -4.37614044904e-002-j4.07114371527e-002
  -4.98212379850e-002-j4.37847695674e-002
  -5.64111824616e-002-j4.64054580912e-002
  -6.35132676072e-002-j4.85206323484e-002
  -7.11053291987e-002-j5.00767700545e-002
  -7.91607769618e-002-j5.10199413093e-002
  -8.76483649414e-002-j5.12960825425e-002
  -9.65319666608e-002-j5.08513021671e-002
  -1.05770357728e-001-j4.96322200086e-002
  -1.15317008963e-001-j4.75863425466e-002
  -1.25119893586e-001-j4.46624759407e-002
  -1.35121312516e-001-j4.08111786829e-002
  -1.45257742370e-001-j3.59852555287e-002
  -1.55459711355e-001-j3.01402940895e-002
  -1.65651708856e-001-j2.32352451023e-002
