<Qucs Dataset 0.0.17>
<indep frequency 200>
  +3.00000000000e+006
  +3.07812550773e+006
  +3.15828554711e+006
  +3.24053310108e+006
  +3.32492253235e+006
  +3.41150961935e+006
  +3.50035159306e+006
  +3.59150717487e+006
  +3.68503661539e+006
  +3.78100173424e+006
  +3.87946596098e+006
  +3.98049437695e+006
  +4.08415375835e+006
  +4.19051262035e+006
  +4.29964126238e+006
  +4.41161181461e+006
  +4.52649828558e+006
  +4.64437661117e+006
  +4.76532470478e+006
  +4.88942250880e+006
  +5.01675204746e+006
  +5.14739748108e+006
  +5.28144516164e+006
  +5.41898368990e+006
  +5.56010397394e+006
  +5.70489928927e+006
  +5.85346534044e+006
  +6.00590032434e+006
  +6.16230499507e+006
  +6.32278273057e+006
  +6.48743960093e+006
  +6.65638443849e+006
  +6.82972890978e+006
  +7.00758758935e+006
  +7.19007803547e+006
  +7.37732086784e+006
  +7.56943984733e+006
  +7.76656195776e+006
  +7.96881748984e+006
  +8.17634012730e+006
  +8.38926703523e+006
  +8.60773895076e+006
  +8.83190027606e+006
  +9.06189917382e+006
  +9.29788766513e+006
  +9.54002173000e+006
  +9.78846141046e+006
  +1.00433709163e+007
  +1.03049187337e+007
  +1.05732777364e+007
  +1.08486253002e+007
  +1.11311434202e+007
  +1.14210188306e+007
  +1.17184431289e+007
  +1.20236129019e+007
  +1.23367298562e+007
  +1.26580009507e+007
  +1.29876385344e+007
  +1.33258604860e+007
  +1.36728903581e+007
  +1.40289575252e+007
  +1.43942973351e+007
  +1.47691512643e+007
  +1.51537670780e+007
  +1.55483989937e+007
  +1.59533078489e+007
  +1.63687612741e+007
  +1.67950338693e+007
  +1.72324073854e+007
  +1.76811709108e+007
  +1.81416210624e+007
  +1.86140621812e+007
  +1.90988065341e+007
  +1.95961745199e+007
  +2.01064948812e+007
  +2.06301049216e+007
  +2.11673507288e+007
  +2.17185874031e+007
  +2.22841792924e+007
  +2.28645002329e+007
  +2.34599337961e+007
  +2.40708735425e+007
  +2.46977232815e+007
  +2.53408973385e+007
  +2.60008208288e+007
  +2.66779299383e+007
  +2.73726722121e+007
  +2.80855068503e+007
  +2.88169050111e+007
  +2.95673501228e+007
  +3.03373382030e+007
  +3.11273781864e+007
  +3.19379922614e+007
  +3.27697162151e+007
  +3.36230997876e+007
  +3.44987070350e+007
  +3.53971167027e+007
  +3.63189226075e+007
  +3.72647340304e+007
  +3.82351761192e+007
  +3.92308903017e+007
  +4.02525347095e+007
  +4.13007846133e+007
  +4.23763328691e+007
  +4.34798903761e+007
  +4.46121865467e+007
  +4.57739697882e+007
  +4.69660079984e+007
  +4.81890890720e+007
  +4.94440214222e+007
  +5.07316345148e+007
  +5.20527794162e+007
  +5.34083293563e+007
  +5.47991803056e+007
  +5.62262515671e+007
  +5.76904863842e+007
  +5.91928525641e+007
  +6.07343431176e+007
  +6.23159769151e+007
  +6.39387993604e+007
  +6.56038830816e+007
  +6.73123286398e+007
  +6.90652652569e+007
  +7.08638515617e+007
  +7.27092763559e+007
  +7.46027593999e+007
  +7.65455522185e+007
  +7.85389389290e+007
  +8.05842370890e+007
  +8.26827985681e+007
  +8.48360104410e+007
  +8.70452959040e+007
  +8.93121152166e+007
  +9.16379666658e+007
  +9.40243875567e+007
  +9.64729552289e+007
  +9.89852880987e+007
  +1.01563046729e+008
  +1.04207934926e+008
  +1.06921700868e+008
  +1.09706138257e+008
  +1.12563087508e+008
  +1.15494436962e+008
  +1.18502124138e+008
  +1.21588137009e+008
  +1.24754515322e+008
  +1.28003351939e+008
  +1.31336794226e+008
  +1.34757045470e+008
  +1.38266366335e+008
  +1.41867076359e+008
  +1.45561555483e+008
  +1.49352245625e+008
  +1.53241652299e+008
  +1.57232346262e+008
  +1.61326965223e+008
  +1.65528215579e+008
  +1.69838874208e+008
  +1.74261790301e+008
  +1.78799887249e+008
  +1.83456164573e+008
  +1.88233699907e+008
  +1.93135651033e+008
  +1.98165257965e+008
  +2.03325845096e+008
  +2.08620823390e+008
  +2.14053692640e+008
  +2.19628043780e+008
  +2.25347561257e+008
  +2.31216025469e+008
  +2.37237315264e+008
  +2.43415410500e+008
  +2.49754394678e+008
  +2.56258457642e+008
  +2.62931898346e+008
  +2.69779127698e+008
  +2.76804671473e+008
  +2.84013173306e+008
  +2.91409397762e+008
  +2.98998233480e+008
  +3.06784696414e+008
  +3.14773933137e+008
  +3.22971224252e+008
  +3.31381987878e+008
  +3.40011783229e+008
  +3.48866314295e+008
  +3.57951433606e+008
  +3.67273146104e+008
  +3.76837613108e+008
  +3.86651156393e+008
  +3.96720262362e+008
  +4.07051586336e+008
  +4.17651956954e+008
  +4.28528380684e+008
  +4.39688046456e+008
  +4.51138330413e+008
  +4.62886800786e+008
  +4.74941222897e+008
  +4.87309564290e+008
  +5.00000000000e+008
</indep>
<dep dBs21 frequency>
  -2.54020478860e+000
  -2.43200601003e+000
  -2.32658141974e+000
  -2.22391749976e+000
  -2.12399712229e+000
  -2.02679965503e+000
  -1.93230108950e+000
  -1.84047419220e+000
  -1.75128867813e+000
  -1.66471140657e+000
  -1.58070659871e+000
  -1.49923607709e+000
  -1.42025952666e+000
  -1.34373477783e+000
  -1.26961811188e+000
  -1.19786458960e+000
  -1.12842840446e+000
  -1.06126326215e+000
  -9.96322789012e-001
  -9.33560972692e-001
  -8.72932639275e-001
  -8.14393972311e-001
  -7.57903080518e-001
  -7.03420622542e-001
  -6.50910499106e-001
  -6.00340625221e-001
  -5.51683797936e-001
  -5.04918678552e-001
  -4.60030912393e-001
  -4.17014414388e-001
  -3.75872855020e-001
  -3.36621389150e-001
  -2.99288679991e-001
  -2.63919282932e-001
  -2.30576469513e-001
  -1.99345591709e-001
  -1.70338112118e-001
  -1.43696458276e-001
  -1.19599901692e-001
  -9.82717173287e-002
  -7.99879516003e-002
  -6.50882226154e-002
  -5.39891035949e-002
  -4.72008110336e-002
  -4.53481497307e-002
  -4.91969809583e-002
  -5.96879117062e-002
  -7.79795014777e-002
  -1.05504120899e-001
  -1.44040781005e-001
  -1.95810945324e-001
  -2.63605786369e-001
  -3.50956939194e-001
  -4.62368151742e-001
  -6.03633342472e-001
  -7.82279166393e-001
  -1.00819032463e+000
  -1.29450932862e+000
  -1.65896101174e+000
  -2.12586156636e+000
  -2.72929381023e+000
  -3.51842535071e+000
  -4.56717819535e+000
  -5.99394692146e+000
  -8.00873518808e+000
  -1.10550866444e+001
  -1.64471212341e+001
  -3.79002362510e+001
  -1.78282510135e+001
  -1.14597601624e+001
  -7.98693759041e+000
  -5.70567696345e+000
  -4.09705396747e+000
  -2.92607451815e+000
  -2.06322150606e+000
  -1.42886549448e+000
  -9.71032585393e-001
  -6.54811152103e-001
  -4.56615354541e-001
  -3.60811754170e-001
  -3.57675113144e-001
  -4.42212848427e-001
  -6.13667266600e-001
  -8.75676415683e-001
  -1.23724664001e+000
  -1.71495499343e+000
  -2.33732895731e+000
  -3.15358508059e+000
  -4.25220107247e+000
  -5.80515692037e+000
  -8.19514689182e+000
  -1.25325447495e+001
  -2.58846573341e+001
  -1.45962214309e+001
  -7.21893375604e+000
  -3.53766977269e+000
  -1.59788709914e+000
  -6.93758483801e-001
  -3.81969956536e-001
  -3.84265081154e-001
  -5.42781689098e-001
  -7.72747004744e-001
  -1.02883429510e+000
  -1.28599880956e+000
  -1.52946741809e+000
  -1.74961470364e+000
  -1.93931496636e+000
  -2.09255810828e+000
  -2.20376471263e+000
  -2.26759809466e+000
  -2.27934266542e+000
  -2.23625711654e+000
  -2.14091151327e+000
  -2.00863292458e+000
  -1.88277020681e+000
  -1.86101360192e+000
  -2.12202712899e+000
  -2.89853970580e+000
  -4.33585385040e+000
  -6.35424699292e+000
  -8.71407930415e+000
  -1.11619718518e+001
  -1.34670908356e+001
  -1.53889552886e+001
  -1.67037478436e+001
  -1.73295332377e+001
  -1.73893490274e+001
  -1.70962350239e+001
  -1.66212046851e+001
  -1.60602916090e+001
  -1.54556409120e+001
  -1.48201150607e+001
  -1.41528315190e+001
  -1.34479315556e+001
  -1.27006267200e+001
  -1.19140574979e+001
  -1.11106332958e+001
  -1.03514622175e+001
  -9.76126787416e+000
  -9.53072906043e+000
  -9.83835359708e+000
  -1.07113303995e+001
  -1.19990972170e+001
  -1.35003101472e+001
  -1.50677367835e+001
  -1.66225983725e+001
  -1.81314198897e+001
  -1.95843252372e+001
  -2.09822219326e+001
  -2.23303359855e+001
  -2.36351758394e+001
  -2.49031862398e+001
  -2.61402155516e+001
  -2.73513819998e+001
  -2.85411497069e+001
  -2.97135319907e+001
  -3.08723890202e+001
  -3.20218087765e+001
  -3.31665664690e+001
  -3.43126508131e+001
  -3.54678227233e+001
  -3.66421268970e+001
  -3.78482064230e+001
  -3.91011880362e+001
  -4.04178593506e+001
  -4.18149409477e+001
  -4.33065548965e+001
  -4.49014689901e+001
  -4.66010770227e+001
  -4.83989772770e+001
  -5.02823467397e+001
  -5.22345027894e+001
  -5.42376636072e+001
  -5.62751189157e+001
  -5.83325033384e+001
  -6.03982632972e+001
  -6.24635819547e+001
  -6.45220248598e+001
  -6.65690929054e+001
  -6.86017883771e+001
  -7.06182411984e+001
  -7.26174079930e+001
  -7.45988396465e+001
  -7.65625065611e+001
  -7.85086696522e+001
  -8.04377863286e+001
  -8.23504426270e+001
  -8.42473046204e+001
  -8.61290838976e+001
  -8.79965132499e+001
  -8.98503297346e+001
  -9.16912630475e+001
  -9.35200277103e+001
  -9.53373179860e+001
  -9.71438047408e+001
  -9.89401336836e+001
  -1.00726924577e+002
  -1.02504771118e+002
  -1.04274241287e+002
  -1.06035877991e+002
</dep>
<dep dBs31 frequency>
  -1.66207068906e+002
  -1.64510288878e+002
  -1.62814923406e+002
  -1.61120885359e+002
  -1.59428079879e+002
  -1.57736404242e+002
  -1.56045747717e+002
  -1.54355991436e+002
  -1.52667008264e+002
  -1.50978662671e+002
  -1.49290810592e+002
  -1.47603299300e+002
  -1.45915967252e+002
  -1.44228643937e+002
  -1.42541149707e+002
  -1.40853295592e+002
  -1.39164883095e+002
  -1.37475703964e+002
  -1.35785539941e+002
  -1.34094162483e+002
  -1.32401332442e+002
  -1.30706799724e+002
  -1.29010302900e+002
  -1.27311568777e+002
  -1.25610311928e+002
  -1.23906234174e+002
  -1.22199024012e+002
  -1.20488355995e+002
  -1.18773890058e+002
  -1.17055270786e+002
  -1.15332126621e+002
  -1.13604069025e+002
  -1.11870691574e+002
  -1.10131569009e+002
  -1.08386256245e+002
  -1.06634287344e+002
  -1.04875174469e+002
  -1.03108406857e+002
  -1.01333449825e+002
  -9.95497438794e+001
  -9.77567039854e+001
  -9.59537191041e+001
  -9.41401521308e+001
  -9.23153404260e+001
  -9.04785972062e+001
  -8.86292141583e+001
  -8.67664657880e+001
  -8.48896162030e+001
  -8.29979293032e+001
  -8.10906837222e+001
  -7.91671943721e+001
  -7.72268431415e+001
  -7.52691222293e+001
  -7.32936948317e+001
  -7.13004794632e+001
  -6.92897660710e+001
  -6.72623740939e+001
  -6.52198641860e+001
  -6.31648152270e+001
  -6.11011740145e+001
  -5.90346723294e+001
  -5.69732783483e+001
  -5.49275992754e+001
  -5.29110772671e+001
  -5.09397375270e+001
  -4.90312098749e+001
  -4.72028487276e+001
  -4.54691032022e+001
  -4.38387748316e+001
  -4.23131416989e+001
  -4.08857536851e+001
  -3.95439886264e+001
  -3.82716783368e+001
  -3.70518076818e+001
  -3.58685475238e+001
  -3.47083705320e+001
  -3.35603733147e+001
  -3.24160761540e+001
  -3.12689563781e+001
  -3.01138932462e+001
  -2.89466248769e+001
  -2.77632640059e+001
  -2.65598897022e+001
  -2.53322205542e+001
  -2.40753766735e+001
  -2.27837535540e+001
  -2.14510686943e+001
  -2.00707240097e+001
  -1.86368017288e+001
  -1.71463750199e+001
  -1.56045246725e+001
  -1.40345923994e+001
  -1.24968419916e+001
  -1.11135173844e+001
  -1.00743992419e+001
  -9.56494718520e+000
  -9.62640038896e+000
  -1.01176654192e+001
  -1.08377257795e+001
  -1.16364655959e+001
  -1.24335545470e+001
  -1.31959847865e+001
  -1.39156651504e+001
  -1.45956106569e+001
  -1.52419784339e+001
  -1.58581192964e+001
  -1.64371485987e+001
  -1.69491565443e+001
  -1.73194609132e+001
  -1.74029068286e+001
  -1.69905776459e+001
  -1.59105125167e+001
  -1.41728711854e+001
  -1.19695118039e+001
  -9.54414047458e+000
  -7.12764607923e+000
  -4.96377469913e+000
  -3.30929788574e+000
  -2.31527669373e+000
  -1.90535699726e+000
  -1.85564905280e+000
  -1.96091916600e+000
  -2.09801963759e+000
  -2.20865411121e+000
  -2.27023403719e+000
  -2.27700009265e+000
  -2.23041571763e+000
  -2.13475075900e+000
  -1.99521155737e+000
  -1.81730019214e+000
  -1.60683192198e+000
  -1.37044211369e+000
  -1.11668995772e+000
  -8.58178493730e-001
  -6.15632619159e-001
  -4.25852364722e-001
  -3.57115565842e-001
  -5.37317912208e-001
  -1.19755429663e+000
  -2.71943999940e+000
  -5.69022603950e+000
  -1.13357779507e+001
  -2.80788167741e+001
  -1.51197370449e+001
  -9.36625285862e+000
  -6.50445395042e+000
  -4.72385600872e+000
  -3.49419409420e+000
  -2.59320611571e+000
  -1.91082809182e+000
  -1.38718229275e+000
  -9.87917688271e-001
  -6.92984553214e-001
  -4.91098636990e-001
  -3.76935865882e-001
  -3.49802329408e-001
  -4.13222410801e-001
  -5.75217178707e-001
  -8.49237308487e-001
  -1.25587779694e+000
  -1.82572367128e+000
  -2.60410950416e+000
  -3.65962240910e+000
  -5.10110771609e+000
  -7.11750419531e+000
  -1.00938956430e+001
  -1.50936231695e+001
  -2.91387191723e+001
  -1.96091948769e+001
  -1.24908714052e+001
  -8.88995327974e+000
  -6.59600953668e+000
  -5.00079684130e+000
  -3.84048706006e+000
  -2.97337127395e+000
  -2.31350230912e+000
  -1.80475155581e+000
  -1.40868337397e+000
  -1.09811384886e+000
  -8.53358921081e-001
  -6.59901549686e-001
  -5.06872730397e-001
  -3.86029041074e-001
  -2.91047083717e-001
  -2.17026990865e-001
  -1.60137356286e-001
  -1.17357742687e-001
  -8.62896197144e-002
  -6.50159685410e-002
  -5.19959305130e-002
  -4.59849775593e-002
  -4.59738649691e-002
  -5.11415426058e-002
  -6.08185354624e-002
  -7.44582451504e-002
  -9.16142937340e-002
  -1.11922512901e-001
  -1.35086530876e-001
  -1.60866165237e-001
  -1.89068018492e-001
</dep>
<dep dBs32 frequency>
  -1.66316920012e+002
  -1.64625797801e+002
  -1.62936374061e+002
  -1.61248575116e+002
  -1.59562320122e+002
  -1.57877520930e+002
  -1.56194081971e+002
  -1.54511900131e+002
  -1.52830864634e+002
  -1.51150856921e+002
  -1.49471750526e+002
  -1.47793410947e+002
  -1.46115695502e+002
  -1.44438453181e+002
  -1.42761524473e+002
  -1.41084741179e+002
  -1.39407926205e+002
  -1.37730893320e+002
  -1.36053446895e+002
  -1.34375381601e+002
  -1.32696482074e+002
  -1.31016522541e+002
  -1.29335266395e+002
  -1.27652465730e+002
  -1.25967860825e+002
  -1.24281179562e+002
  -1.22592136802e+002
  -1.20900433688e+002
  -1.19205756888e+002
  -1.17507777772e+002
  -1.15806151522e+002
  -1.14100516173e+002
  -1.12390491585e+002
  -1.10675678360e+002
  -1.08955656689e+002
  -1.07229985162e+002
  -1.05498199545e+002
  -1.03759811549e+002
  -1.02014307627e+002
  -1.00261147852e+002
  -9.84997649424e+001
  -9.67295635290e+001
  -9.49499198155e+001
  -9.31601818070e+001
  -9.13596703807e+001
  -8.95476815621e+001
  -8.77234905155e+001
  -8.58863579495e+001
  -8.40355399107e+001
  -8.21703023078e+001
  -8.02899420202e+001
  -7.83938171383e+001
  -7.64813898206e+001
  -7.45522864811e+001
  -7.26063815906e+001
  -7.06439132487e+001
  -6.86656406767e+001
  -6.66730553507e+001
  -6.46686573954e+001
  -6.26563046298e+001
  -6.06416289572e+001
  -5.86324870646e+001
  -5.66393623044e+001
  -5.46755598248e+001
  -5.27569538200e+001
  -5.09010081965e+001
  -4.91248955874e+001
  -4.74428664099e+001
  -4.58635054495e+001
  -4.43878547594e+001
  -4.30092075537e+001
  -4.17146628730e+001
  -4.04877499531e+001
  -3.93111254573e+001
  -3.81686043611e+001
  -3.70462734450e+001
  -3.59328108116e+001
  -3.48192826537e+001
  -3.36986732508e+001
  -3.25653259947e+001
  -3.14143958927e+001
  -3.02413602293e+001
  -2.90416043951e+001
  -2.78100882460e+001
  -2.65411001626e+001
  -2.52281216303e+001
  -2.38638629858e+001
  -2.24406130356e+001
  -2.09512198509e+001
  -1.93913835059e+001
  -1.77646515078e+001
  -1.60926467849e+001
  -1.44336986327e+001
  -1.29078647150e+001
  -1.17024446592e+001
  -1.10000713044e+001
  -1.08387515072e+001
  -1.10736853638e+001
  -1.14996003178e+001
  -1.19614991565e+001
  -1.23734855567e+001
  -1.26962959356e+001
  -1.29150268699e+001
  -1.30257786034e+001
  -1.30288587262e+001
  -1.29255475624e+001
  -1.27166118135e+001
  -1.24016574338e+001
  -1.19789204142e+001
  -1.14453858979e+001
  -1.07973601717e+001
  -1.00319393169e+001
  -9.15040969524e+000
  -8.16573068318e+000
  -7.11784697557e+000
  -6.10013329247e+000
  -5.28636642084e+000
  -4.90465981488e+000
  -5.09793300926e+000
  -5.79065965025e+000
  -6.76311913655e+000
  -7.81500996331e+000
  -8.82775155266e+000
  -9.74678377617e+000
  -1.05522466783e+001
  -1.12400382974e+001
  -1.18121729242e+001
  -1.22723136799e+001
  -1.26238078329e+001
  -1.28688826602e+001
  -1.30083998409e+001
  -1.30419528583e+001
  -1.29683376732e+001
  -1.27866825706e+001
  -1.24989354970e+001
  -1.21151571968e+001
  -1.16642252896e+001
  -1.12130499966e+001
  -1.08914619819e+001
  -1.08945988229e+001
  -1.14048515712e+001
  -1.24527933858e+001
  -1.38908185465e+001
  -1.55201747885e+001
  -1.71959103265e+001
  -1.88412615788e+001
  -2.04245415183e+001
  -2.19374669405e+001
  -2.33823700167e+001
  -2.47657557079e+001
  -2.60952846598e+001
  -2.73784430537e+001
  -2.86220234497e+001
  -2.98320025114e+001
  -3.10136268288e+001
  -3.21716245853e+001
  -3.33105103956e+001
  -3.44349724537e+001
  -3.55503372973e+001
  -3.66631007249e+001
  -3.77814905289e+001
  -3.89159816096e+001
  -4.00796136821e+001
  -4.12878792576e+001
  -4.25579032898e+001
  -4.39067174057e+001
  -4.53487303374e+001
  -4.68929738724e+001
  -4.85410846752e+001
  -5.02868841722e+001
  -5.21177540408e+001
  -5.40171990624e+001
  -5.59676086051e+001
  -5.79524283558e+001
  -5.99574346021e+001
  -6.19712019934e+001
  -6.39850292936e+001
  -6.59925857915e+001
  -6.79894649830e+001
  -6.99727513075e+001
  -7.19406470496e+001
  -7.38921720270e+001
  -7.58269317521e+001
  -7.77449432599e+001
  -7.96465066556e+001
  -8.15321116221e+001
  -8.34023700602e+001
  -8.52579679817e+001
  -8.70996314530e+001
  -8.89281027256e+001
  -9.07441237226e+001
  -9.25484248155e+001
  -9.43417173952e+001
  -9.61246891520e+001
  -9.78980012829e+001
  -9.96622870569e+001
  -1.01418151333e+002
  -1.03166170732e+002
  -1.04906894251e+002
  -1.06640844167e+002
</dep>
<dep S[2,2] frequency>
  -2.29920950829e-001+j6.24481289177e-001
  -2.12083159422e-001+j6.19520784437e-001
  -1.94434227427e-001+j6.13958259264e-001
  -1.77007361009e-001+j6.07797752617e-001
  -1.59835726361e-001+j6.01045060331e-001
  -1.42952348092e-001+j5.93707701983e-001
  -1.26390016084e-001+j5.85794878117e-001
  -1.10181202233e-001+j5.77317419040e-001
  -9.43579883071e-002+j5.68287726549e-001
  -7.89520060717e-002+j5.58719710163e-001
  -6.39943906169e-002+j5.48628719530e-001
  -4.95157476974e-002+j5.38031474829e-001
  -3.55461357028e-002+j5.26945997107e-001
  -2.21150627175e-002+j5.15391540561e-001
  -9.25149896175e-003+j5.03388528873e-001
  +3.01609525484e-003+j4.90958497790e-001
  +1.46597260821e-002+j4.78124046189e-001
  +2.56518073366e-002+j4.64908797969e-001
  +3.59650866508e-002+j4.51337377184e-001
  +4.55725569639e-002+j4.37435398949e-001
  +5.44473538658e-002+j4.23229478779e-001
  +6.25626394082e-002+j4.08747263180e-001
  +6.98914731030e-002+j3.94017484577e-001
  +7.64066709418e-002+j3.79070043894e-001
  +8.20806533995e-002+j3.63936124500e-001
  +8.68852835463e-002+j3.48648341683e-001
  +9.07916966037e-002+j3.33240932379e-001
  +9.37701225547e-002+j3.17749990586e-001
  +9.57897037967e-002+j3.02213754773e-001
  +9.68183103378e-002+j2.86672954637e-001
  +9.68223557324e-002+j2.71171225864e-001
  +9.57666178978e-002+j2.55755603093e-001
  +9.36140702370e-002+j2.40477103188e-001
  +9.03257302180e-002+j2.25391413135e-001
  +8.58605348991e-002+j2.10559699634e-001
  +8.01752560228e-002+j1.96049560615e-001
  +7.32244715293e-002+j1.81936142723e-001
  +6.49606160172e-002+j1.68303453288e-001
  +5.53341403272e-002+j1.55245900418e-001
  +4.42938207149e-002+j1.42870100801e-001
  +3.17872719680e-002+j1.31297001356e-001
  +1.77617375589e-002+j1.20664367960e-001
  +2.16525526210e-003+j1.11129701624e-001
  -1.50516690679e-002+j1.02873648784e-001
  -3.39337004941e-002+j9.61039764140e-002
  -5.45173850137e-002+j9.10601814882e-002
  -7.68266042706e-002+j8.80187934120e-002
  -1.00866335067e-001+j8.72993994356e-002
  -1.26614122467e-001+j8.92713637203e-002
  -1.54008476300e-001+j9.43610993775e-002
  -1.82933144766e-001+j1.03059555037e-001
  -2.13195900835e-001+j1.15929238746e-001
  -2.44500106450e-001+j1.33609537202e-001
