<Qucs Dataset 0.0.17>
<indep frequency 200>
  +5.00000000000e+006
  +5.11705701053e+006
  +5.23685448980e+006
  +5.35945659603e+006
  +5.48492898946e+006
  +5.61333886755e+006
  +5.74475500094e+006
  +5.87924777026e+006
  +6.01688920389e+006
  +6.15775301646e+006
  +6.30191464840e+006
  +6.44945130627e+006
  +6.60044200416e+006
  +6.75496760599e+006
  +6.91311086882e+006
  +7.07495648717e+006
  +7.24059113837e+006
  +7.41010352899e+006
  +7.58358444235e+006
  +7.76112678714e+006
  +7.94282564714e+006
  +8.12877833222e+006
  +8.31908443038e+006
  +8.51384586113e+006
  +8.71316693005e+006
  +8.91715438466e+006
  +9.12591747160e+006
  +9.33956799510e+006
  +9.55822037693e+006
  +9.78199171759e+006
  +1.00110018591e+007
  +1.02453734491e+007
  +1.04852320066e+007
  +1.07307059893e+007
  +1.09819268621e+007
  +1.12390291677e+007
  +1.15021505989e+007
  +1.17714320716e+007
  +1.20470178012e+007
  +1.23290553791e+007
  +1.26176958522e+007
  +1.29130938034e+007
  +1.32154074349e+007
  +1.35247986523e+007
  +1.38414331520e+007
  +1.41654805092e+007
  +1.44971142694e+007
  +1.48365120409e+007
  +1.51838555902e+007
  +1.55393309389e+007
  +1.59031284640e+007
  +1.62754429992e+007
  +1.66564739397e+007
  +1.70464253487e+007
  +1.74455060670e+007
  +1.78539298245e+007
  +1.82719153548e+007
  +1.86996865124e+007
  +1.91374723926e+007
  +1.95855074540e+007
  +2.00440316445e+007
  +2.05132905291e+007
  +2.09935354222e+007
  +2.14850235216e+007
  +2.19880180465e+007
  +2.25027883785e+007
  +2.30296102057e+007
  +2.35687656706e+007
  +2.41205435208e+007
  +2.46852392642e+007
  +2.52631553267e+007
  +2.58546012145e+007
  +2.64598936798e+007
  +2.70793568904e+007
  +2.77133226033e+007
  +2.83621303425e+007
  +2.90261275805e+007
  +2.97056699248e+007
  +3.04011213082e+007
  +3.11128541837e+007
  +3.18412497236e+007
  +3.25866980244e+007
  +3.33495983152e+007
  +3.41303591714e+007
  +3.49293987339e+007
  +3.57471449330e+007
  +3.65840357171e+007
  +3.74405192880e+007
  +3.83170543400e+007
  +3.92141103067e+007
  +4.01321676113e+007
  +4.10717179246e+007
  +4.20332644281e+007
  +4.30173220834e+007
  +4.40244179082e+007
  +4.50550912583e+007
  +4.61098941167e+007
  +4.71893913889e+007
  +4.82941612058e+007
  +4.94247952331e+007
  +5.05818989883e+007
  +5.17660921648e+007
  +5.29780089639e+007
  +5.42182984345e+007
  +5.54876248206e+007
  +5.67866679172e+007
  +5.81161234340e+007
  +5.94767033685e+007
  +6.08691363870e+007
  +6.22941682148e+007
  +6.37525620357e+007
  +6.52450989007e+007
  +6.67725781465e+007
  +6.83358178231e+007
  +6.99356551324e+007
  +7.15729468762e+007
  +7.32485699154e+007
  +7.49634216393e+007
  +7.67184204465e+007
  +7.85145062365e+007
  +8.03526409131e+007
  +8.22338088997e+007
  +8.41590176665e+007
  +8.61292982699e+007
  +8.81457059048e+007
  +9.02093204696e+007
  +9.23212471448e+007
  +9.44826169846e+007
  +9.66945875228e+007
  +9.89583433927e+007
  +1.01275096962e+008
  +1.03646088980e+008
  +1.06072589246e+008
  +1.08555897285e+008
  +1.11097343047e+008
  +1.13698287618e+008
  +1.16360123948e+008
  +1.19084277599e+008
  +1.21872207506e+008
  +1.24725406762e+008
  +1.27645403412e+008
  +1.30633761278e+008
  +1.33692080792e+008
  +1.36821999854e+008
  +1.40025194709e+008
  +1.43303380847e+008
  +1.46658313920e+008
  +1.50091790679e+008
  +1.53605649943e+008
  +1.57201773580e+008
  +1.60882087513e+008
  +1.64648562755e+008
  +1.68503216464e+008
  +1.72448113020e+008
  +1.76485365137e+008
  +1.80617134985e+008
  +1.84845635360e+008
  +1.89173130857e+008
  +1.93601939091e+008
  +1.98134431935e+008
  +2.02773036792e+008
  +2.07520237893e+008
  +2.12378577627e+008
  +2.17350657906e+008
  +2.22439141556e+008
  +2.27646753743e+008
  +2.32976283433e+008
  +2.38430584886e+008
  +2.44012579183e+008
  +2.49725255793e+008
  +2.55571674172e+008
  +2.61554965403e+008
  +2.67678333871e+008
  +2.73945058980e+008
  +2.80358496910e+008
  +2.86922082415e+008
  +2.93639330659e+008
  +3.00513839104e+008
  +3.07549289429e+008
  +3.14749449511e+008
  +3.22118175436e+008
  +3.29659413567e+008
  +3.37377202656e+008
  +3.45275676008e+008
  +3.53359063696e+008
  +3.61631694824e+008
  +3.70097999846e+008
  +3.78762512939e+008
  +3.87629874431e+008
  +3.96704833290e+008
  +4.05992249659e+008
  +4.15497097468e+008
  +4.25224467090e+008
  +4.35179568074e+008
  +4.45367731931e+008
  +4.55794414988e+008
  +4.66465201314e+008
  +4.77385805710e+008
  +4.88562076767e+008
  +5.00000000000e+008
</indep>
<dep dBs21 frequency>
  -1.94772762373e+001
  -1.92289930764e+001
  -1.89789872729e+001
  -1.87272401718e+001
  -1.84737401818e+001
  -1.82184841199e+001
  -1.79614787404e+001
  -1.77027424655e+001
  -1.74423073395e+001
  -1.71802212233e+001
  -1.69165502487e+001
  -1.66513815466e+001
  -1.63848262600e+001
  -1.61170228465e+001
  -1.58481406631e+001
  -1.55783838165e+001
  -1.53079952381e+001
  -1.50372609266e+001
  -1.47665142635e+001
  -1.44961402754e+001
  -1.42265796692e+001
  -1.39583324146e+001
  -1.36919605920e+001
  -1.34280901605e+001
  -1.31674112427e+001
  -1.29106764695e+001
  -1.26586968960e+001
  -1.24123349908e+001
  -1.21724942437e+001
  -1.19401050271e+001
  -1.17161065115e+001
  -1.15014246710e+001
  -1.12969467221e+001
  -1.11034926983e+001
  -1.09217852411e+001
  -1.07524190424e+001
  -1.05958316402e+001
  -1.04522773975e+001
  -1.03218064357e+001
  -1.02042500349e+001
  -1.00992135562e+001
  -1.00060773480e+001
  -9.92400544079e+000
  -9.85196119949e+000
  -9.78872858277e+000
  -9.73293731263e+000
  -9.68309011414e+000
  -9.63759024164e+000
  -9.59476772718e+000
  -9.55290311721e+000
  -9.51024784813e+000
  -9.46504079841e+000
  -9.41552090779e+000
  -9.35993605103e+000
  -9.29654858898e+000
  -9.22363820111e+000
  -9.13950274650e+000
  -9.04245802958e+000
  -8.93083748949e+000
  -8.80299302137e+000
  -8.65729841309e+000
  -8.49215728958e+000
  -8.30601805694e+000
  -8.09739920618e+000
  -7.86492955954e+000
  -7.60740972079e+000
  -7.32390320426e+000
  -7.01386845992e+000
  -6.67734603426e+000
  -6.31521759747e+000
  -5.92955355676e+000
  -5.52405937068e+000
  -5.10461005055e+000
  -4.67981642426e+000
  -4.26148360698e+000
  -3.86470190222e+000
  -3.50719330397e+000
  -3.20753597040e+000
  -2.98217200318e+000
  -2.84173641568e+000
  -2.78794140470e+000
  -2.81238672655e+000
  -2.89787303944e+000
  -3.02155494805e+000
  -3.15854649021e+000
  -3.28479920860e+000
  -3.37879308338e+000
  -3.42220517482e+000
  -3.40000254014e+000
  -3.30043545024e+000
  -3.11536082162e+000
  -2.84131749990e+000
  -2.48181777763e+000
  -2.05127801577e+000
  -1.58043903750e+000
  -1.12108618960e+000
  -7.43699037101e-001
  -5.18758333526e-001
  -4.81728784871e-001
  -6.05013345407e-001
  -8.04594664598e-001
  -9.75411027724e-001
  -1.02692090769e+000
  -9.08446104589e-001
  -6.37462708014e-001
  -3.38316027922e-001
  -2.28999116700e-001
  -4.73346876823e-001
  -2.50471213157e+000
  -9.31701936426e+000
  -1.34072920680e+001
  -1.70954605351e+001
  -2.13548036610e+001
  -2.58828101953e+001
  -3.03650969847e+001
  -3.45266102887e+001
  -3.80777570398e+001
  -4.08569454925e+001
  -4.30451984237e+001
  -4.50334966386e+001
  -4.71193538695e+001
  -4.94116488575e+001
  -5.18940131208e+001
  -5.45049308646e+001
  -5.71834085772e+001
  -5.98835335797e+001
  -6.25738271524e+001
  -6.52321943692e+001
  -6.78408721403e+001
  -7.03825874361e+001
  -7.28383065385e+001
  -7.51871452037e+001
  -7.74092579568e+001
  -7.94919152262e+001
  -8.14369463190e+001
  -8.32653644358e+001
  -8.50151694003e+001
  -8.67322853027e+001
  -8.84590936314e+001
  -9.02259363376e+001
  -9.20482313123e+001
  -9.39284578014e+001
  -9.58605271985e+001
  -9.78342119032e+001
  -9.98383945546e+001
  -1.01862921519e+002
  -1.03899376095e+002
  -1.05941197992e+002
  -1.07983486165e+002
  -1.10022692847e+002
  -1.12056315199e+002
  -1.14082628547e+002
  -1.16100472571e+002
  -1.18109087209e+002
  -1.20107990041e+002
  -1.22096886279e+002
  -1.24075603619e+002
  -1.26044045806e+002
  -1.28002160273e+002
  -1.29949916510e+002
  -1.31887292780e+002
  -1.33814269554e+002
  -1.35730828546e+002
  -1.37636956536e+002
  -1.39532653374e+002
  -1.41417943544e+002
  -1.43292890606e+002
  -1.45157613628e+002
  -1.47012304475e+002
  -1.48857244537e+002
  -1.50692819271e+002
  -1.52519528809e+002
  -1.54337992965e+002
  -1.56148949275e+002
  -1.57953243252e+002
  -1.59751810767e+002
  -1.61545653376e+002
  -1.63335808173e+002
  -1.65123314496e+002
  -1.66909180164e+002
  -1.68694349941e+002
  -1.70479678637e+002
  -1.72265910584e+002
  -1.74053666483e+002
  -1.75843437769e+002
  -1.77635587920e+002
  -1.79430359612e+002
  -1.81227886284e+002
  -1.83028206579e+002
  -1.84831280240e+002
  -1.86637004213e+002
  -1.88445228010e+002
  -1.90255767663e+002
  -1.92068417887e+002
  -1.93882962262e+002
  -1.95699181471e+002
  -1.97516859681e+002
  -1.99335789294e+002
  -2.01155774282e+002
  -2.02976632360e+002
</dep>
<dep dBs41 frequency>
  -1.#INF0000000e+000
  -1.#INF0000000e+000
  -1.#INF0000000e+000
  -1.#INF0000000e+000
  -1.#INF0000000e+000
  -1.#INF0000000e+000
  -1.#INF0000000e+000
  -1.#INF0000000e+000
  -1.#INF0000000e+000
  -1.#INF0000000e+000
  -1.#INF0000000e+000
  -1.#INF0000000e+000
  -1.#INF0000000e+000
  -1.#INF0000000e+000
  -1.#INF0000000e+000
  -1.#INF0000000e+000
  -1.#INF0000000e+000
  -1.#INF0000000e+000
  -1.#INF0000000e+000
  -1.#INF0000000e+000
  -1.#INF0000000e+000
  -1.#INF0000000e+000
  -1.#INF0000000e+000
  -1.#INF0000000e+000
  -1.#INF0000000e+000
  -1.#INF0000000e+000
  -1.#INF0000000e+000
  -1.#INF0000000e+000
  -1.#INF0000000e+000
  -1.#INF0000000e+000
  -1.#INF0000000e+000
  -1.#INF0000000e+000
  -1.#INF0000000e+000
  -1.#INF0000000e+000
  -1.#INF0000000e+000
  -1.#INF0000000e+000
  -1.#INF0000000e+000
  -1.#INF0000000e+000
  -1.#INF0000000e+000
  -1.#INF0000000e+000
  -1.#INF0000000e+000
  -1.#INF0000000e+000
  -1.#INF0000000e+000
  -1.#INF0000000e+000
  -1.#INF0000000e+000
  -1.#INF0000000e+000
  -1.#INF0000000e+000
  -1.#INF0000000e+000
  -1.#INF0000000e+000
  -1.#INF0000000e+000
  -1.#INF0000000e+000
  -1.#INF0000000e+000
  -1.#INF0000000e+000
  -1.#INF0000000e+000
  -1.#INF0000000e+000
  -1.#INF0000000e+000
  -1.#INF0000000e+000
  -1.#INF0000000e+000
  -1.#INF0000000e+000
  -1.#INF0000000e+000
  -1.#INF0000000e+000
  -1.#INF0000000e+000
  -1.#INF0000000e+000
  -1.#INF0000000e+000
  -1.#INF0000000e+000
  -1.#INF0000000e+000
  -1.#INF0000000e+000
  -1.#INF0000000e+000
  -1.#INF0000000e+000
  -1.#INF0000000e+000
  -1.#INF0000000e+000
  -1.#INF0000000e+000
  -1.#INF0000000e+000
  -1.#INF0000000e+000
  -1.#INF0000000e+000
  -1.#INF0000000e+000
  -1.#INF0000000e+000
  -1.#INF0000000e+000
  -1.#INF0000000e+000
  -1.#INF0000000e+000
  -1.#INF0000000e+000
  -1.#INF0000000e+000
  -1.#INF0000000e+000
  -1.#INF0000000e+000
  -1.#INF0000000e+000
  -1.#INF0000000e+000
  -1.#INF0000000e+000
  -1.#INF0000000e+000
  -1.#INF0000000e+000
  -1.#INF0000000e+000
  -1.#INF0000000e+000
  -1.#INF0000000e+000
  -1.#INF0000000e+000
  -1.#INF0000000e+000
  -1.#INF0000000e+000
  -1.#INF0000000e+000
  -1.#INF0000000e+000
  -1.#INF0000000e+000
  -1.#INF0000000e+000
  -1.#INF0000000e+000
  -1.#INF0000000e+000
  -1.#INF0000000e+000
  -1.#INF0000000e+000
  -1.#INF0000000e+000
  -1.#INF0000000e+000
  -1.#INF0000000e+000
  -1.#INF0000000e+000
  -1.#INF0000000e+000
  -1.#INF0000000e+000
  -1.#INF0000000e+000
  -1.#INF0000000e+000
  -1.#INF0000000e+000
  -1.#INF0000000e+000
  -1.#INF0000000e+000
  -1.#INF0000000e+000
  -1.#INF0000000e+000
  -1.#INF0000000e+000
  -1.#INF0000000e+000
  -1.#INF0000000e+000
  -1.#INF0000000e+000
  -1.#INF0000000e+000
  -1.#INF0000000e+000
  -1.#INF0000000e+000
  -1.#INF0000000e+000
  -1.#INF0000000e+000
  -1.#INF0000000e+000
  -1.#INF0000000e+000
  -1.#INF0000000e+000
  -1.#INF0000000e+000
  -1.#INF0000000e+000
  -1.#INF0000000e+000
  -1.#INF0000000e+000
  -1.#INF0000000e+000
  -1.#INF0000000e+000
  -1.#INF0000000e+000
  -1.#INF0000000e+000
  -1.#INF0000000e+000
  -1.#INF0000000e+000
  -1.#INF0000000e+000
  -1.#INF0000000e+000
  -1.#INF0000000e+000
  -1.#INF0000000e+000
  -1.#INF0000000e+000
  -1.#INF0000000e+000
  -1.#INF0000000e+000
  -1.#INF0000000e+000
  -1.#INF0000000e+000
  -1.#INF0000000e+000
  -1.#INF0000000e+000
  -1.#INF0000000e+000
  -1.#INF0000000e+000
  -1.#INF0000000e+000
  -1.#INF0000000e+000
  -1.#INF0000000e+000
  -1.#INF0000000e+000
  -1.#INF0000000e+000
  -1.#INF0000000e+000
  -1.#INF0000000e+000
  -1.#INF0000000e+000
  -1.#INF0000000e+000
  -1.#INF0000000e+000
  -1.#INF0000000e+000
  -1.#INF0000000e+000
  -1.#INF0000000e+000
  -1.#INF0000000e+000
  -1.#INF0000000e+000
  -1.#INF0000000e+000
  -1.#INF0000000e+000
  -1.#INF0000000e+000
  -1.#INF0000000e+000
  -1.#INF0000000e+000
  -1.#INF0000000e+000
  -1.#INF0000000e+000
  -1.#INF0000000e+000
  -1.#INF0000000e+000
  -1.#INF0000000e+000
  -1.#INF0000000e+000
  -1.#INF0000000e+000
  -1.#INF0000000e+000
  -1.#INF0000000e+000
  -1.#INF0000000e+000
  -1.#INF0000000e+000
  -1.#INF0000000e+000
  -1.#INF0000000e+000
  -1.#INF0000000e+000
  -1.#INF0000000e+000
  -1.#INF0000000e+000
  -1.#INF0000000e+000
  -1.#INF0000000e+000
  -1.#INF0000000e+000
  -1.#INF0000000e+000
  -1.#INF0000000e+000
  -1.#INF0000000e+000
  -1.#INF0000000e+000
  -1.#INF0000000e+000
  -1.#INF0000000e+000
  -1.#INF0000000e+000
  -1.#INF0000000e+000
  -1.#INF0000000e+000
  -1.#INF0000000e+000
</dep>
<dep dBs31 frequency>
  -2.34291200906e+002
  -2.32470500622e+002
  -2.30649458242e+002
  -2.28828083299e+002
  -2.27006388989e+002
  -2.25184392734e+002
  -2.23362116803e+002
  -2.21539589008e+002
  -2.19716843467e+002
  -2.17893921434e+002
  -2.16070872207e+002
  -2.14247754090e+002
  -2.12424635404e+002
  -2.10601595542e+002
  -2.08778726012e+002
  -2.06956131463e+002
  -2.05133930601e+002
  -2.03312256964e+002
  -2.01491259427e+002
  -1.99671102339e+002
  -1.97851965138e+002
  -1.96034041269e+002
  -1.94217536210e+002
  -1.92402664366e+002
  -1.90589644600e+002
  -1.88778694171e+002
  -1.86970020860e+002
  -1.85163813154e+002
  -1.83360228462e+002
  -1.81559379473e+002
  -1.79761319036e+002
  -1.77966024145e+002
  -1.76173379943e+002
  -1.74383164927e+002
  -1.72595038754e+002
  -1.70808534171e+002
  -1.69023054537e+002
  -1.67237878108e+002
  -1.65452169777e+002
  -1.63665000256e+002
  -1.61875371883e+002
  -1.60082249418e+002
  -1.58284593556e+002
  -1.56481394474e+002
  -1.54671702711e+002
  -1.52854654976e+002
  -1.51029493140e+002
  -1.49195575449e+002
  -1.47352379890e+002
  -1.45499500400e+002
  -1.43636637194e+002
  -1.41763582841e+002
  -1.39880205841e+002
  -1.37986433347e+002
  -1.36082234506e+002
  -1.34167605591e+002
  -1.32242557866e+002
  -1.30307108884e+002
  -1.28361277864e+002
  -1.26405085717e+002
  -1.24438560518e+002
  -1.22461749444e+002
  -1.20474738723e+002
  -1.18477683795e+002
  -1.16470852857e+002
  -1.14454688144e+002
  -1.12429890824e+002
  -1.10397536948e+002
  -1.08359233191e+002
  -1.06317320967e+002
  -1.04275133549e+002
  -1.02237298544e+002
  -1.00210049586e+002
  -9.82014550480e+001
  -9.62213775401e+001
  -9.42808511500e+001
  -9.23904578081e+001
  -9.05573423189e+001
  -8.87809458133e+001
  -8.70484811207e+001
  -8.53323106231e+001
  -8.35918019396e+001
  -8.17808778017e+001
  -7.98592845786e+001
  -7.78025098075e+001
  -7.56053886649e+001
  -7.32785084009e+001
  -7.08409301071e+001
  -6.83136513993e+001
  -6.57161096259e+001
  -6.30657854021e+001
  -6.03801100870e+001
  -5.76800404269e+001
  -5.49949287254e+001
  -5.23677576623e+001
  -4.98571631577e+001
  -4.75267823072e+001
  -4.54062952032e+001
  -4.34161427048e+001
  -4.12931326814e+001
  -3.86446239845e+001
  -3.52298087127e+001
  -3.11582038654e+001
  -2.67138139133e+001
  -2.21735325969e+001
  -1.78387533327e+001
  -1.40446848249e+001
  -1.02964861145e+001
  -3.59009750583e+000
  -5.90580772243e-001
  -2.42465175661e-001
  -2.95786619860e-001
  -5.77623473704e-001
  -8.67067634014e-001
  -1.01761603234e+000
  -9.95094671830e-001
  -8.40233376179e-001
  -6.38051239720e-001
  -4.93322720029e-001
  -4.96982615149e-001
  -6.88648576681e-001
  -1.04305243192e+000
  -1.49322088192e+000
  -1.96664764350e+000
  -2.40757240059e+000
  -2.78165729167e+000
  -3.07193162370e+000
  -3.27323612490e+000
  -3.38797308326e+000
  -3.42354014240e+000
  -3.39106857531e+000
  -3.30499507683e+000
  -3.18303989399e+000
  -3.04616748201e+000
  -2.91806083559e+000
  -2.82364360625e+000
  -2.78640690203e+000
  -2.82486516148e+000
  -2.94920768423e+000
  -3.15956273609e+000
  -3.44673494120e+000
  -3.79506108388e+000
  -4.18608979617e+000
  -4.60176347568e+000
  -5.02642532673e+000
  -5.44765407362e+000
  -5.85627850097e+000
  -6.24596251154e+000
  -6.61264459476e+000
  -6.95399103484e+000
  -7.26893146502e+000
  -7.55729340191e+000
  -7.81952806782e+000
  -8.05651130940e+000
  -8.26940259628e+000
  -8.45954731509e+000
  -8.62841058858e+000
  -8.77753367496e+000
  -8.90850632004e+000
  -9.02295020691e+000
  -9.12250994842e+000
  -9.20884899295e+000
  -9.28364845763e+000
  -9.34860734218e+000
  -9.40544287179e+000
  -9.45588991984e+000
  -9.50169860952e+000
  -9.54462932254e+000
  -9.58644448156e+000
  -9.62889664559e+000
  -9.67371268206e+000
  -9.72257406493e+000
  -9.77709369217e+000
  -9.83878999951e+000
  -9.90905953625e+000
  -9.98914951447e+000
  -1.00801320876e+001
  -1.01828822043e+001
  -1.02980607796e+001
  -1.04261046144e+001
  -1.05672240031e+001
  -1.07214083476e+001
  -1.08884394366e+001
  -1.10679114326e+001
  -1.12592561267e+001
  -1.14617717182e+001
  -1.16746532834e+001
  -1.18970231927e+001
  -1.21279599836e+001
  -1.23665245368e+001
  -1.26117827831e+001
  -1.28628245346e+001
  -1.31187783523e+001
  -1.33788226124e+001
  -1.36421931112e+001
  -1.39081876523e+001
  -1.41761681109e+001
  -1.44455604677e+001
  -1.47158532785e+001
  -1.49865949928e+001
</dep>
<dep dBs32 frequency>
  -2.33368127187e+002
  -2.31506349590e+002
  -2.29642589586e+002
  -2.27776816078e+002
  -2.25909004432e+002
  -2.24039137787e+002
  -2.22167208558e+002
  -2.20293220129e+002
  -2.18417188777e+002
  -2.16539145824e+002
  -2.14659140058e+002
  -2.12777240418e+002
  -2.10893538967e+002
  -2.09008154146e+002
  -2.07121234312e+002
  -2.05232961541e+002
  -2.03343555650e+002
  -2.01453278379e+002
  -1.99562437656e+002
  -1.97671391792e+002
  -1.95780553451e+002
  -1.93890393166e+002
  -1.92001442114e+002
  -1.90114293805e+002
  -1.88229604288e+002
  -1.86348090409e+002
  -1.84470525634e+002
  -1.82597732947e+002
  -1.80730574350e+002
  -1.78869936620e+002
  -1.77016713109e+002
  -1.75171781631e+002
  -1.73335978766e+002
  -1.71510071302e+002
  -1.69694725882e+002
  -1.67890478289e+002
  -1.66097704076e+002
  -1.64316592377e+002
  -1.62547124644e+002
  -1.60789059859e+002
  -1.59041927237e+002
  -1.57305026907e+002
  -1.55577438370e+002
  -1.53858035887e+002
  -1.52145509464e+002
  -1.50438389724e+002
  -1.48735074829e+002
  -1.47033857667e+002
  -1.45332951728e+002
  -1.43630514451e+002
  -1.41924667170e+002
  -1.40213511211e+002
  -1.38495140011e+002
  -1.36767647463e+002
  -1.35029132880e+002
  -1.33277703202e+002
  -1.31511473178e+002
  -1.29728564382e+002
  -1.27927104103e+002
  -1.26105225279e+002
  -1.24261068973e+002
  -1.22392791263e+002
  -1.20498577032e+002
  -1.18576664000e+002
  -1.16625381575e+002
  -1.14643210761e+002
  -1.12628873581e+002
  -1.10581463215e+002
  -1.08500629063e+002
  -1.06386833435e+002
  -1.04241696557e+002
  -1.02068439965e+002
  -9.98724177285e+001
  -9.76616790168e+001
  -9.54474224020e+001
  -9.32440820255e+001
  -9.10686687177e+001
  -8.89389883215e+001
  -8.68706424200e+001
  -8.48733491823e+001
  -8.29478182373e+001
  -8.10845501244e+001
  -7.92651368668e+001
  -7.74654000114e+001
  -7.56589783765e+001
  -7.38201850182e+001
  -7.19256728792e+001
  -6.99550729131e+001
  -6.78910498664e+001
  -6.57192499071e+001
  -6.34285675495e+001
  -6.10121501506e+001
  -5.84695997106e+001
  -5.58107883104e+001
  -5.30611284870e+001
  -5.02660947548e+001
  -4.74886057731e+001
  -4.47899634356e+001
  -4.21943179622e+001
  -3.96598743181e+001
  -3.70844201507e+001
