<Qucs Dataset 0.0.17>
<indep frequency 200>
  +6.10000000000e+006
  +6.24280955284e+006
  +6.38896247755e+006
  +6.53853704715e+006
  +6.69161336714e+006
  +6.84827341842e+006
  +7.00860110114e+006
  +7.17268227972e+006
  +7.34060482874e+006
  +7.51245868009e+006
  +7.68833587105e+006
  +7.86833059365e+006
  +8.05253924507e+006
  +8.24106047931e+006
  +8.43399525996e+006
  +8.63144691435e+006
  +8.83352118881e+006
  +9.04032630537e+006
  +9.25197301967e+006
  +9.46857468030e+006
  +9.69024728951e+006
  +9.91710956531e+006
  +1.01492830051e+007
  +1.03868919506e+007
  +1.06300636547e+007
  +1.08789283493e+007
  +1.11336193153e+007
  +1.13942729540e+007
  +1.16610288599e+007
  +1.19340298955e+007
  +1.22134222681e+007
  +1.24993556079e+007
  +1.27919830481e+007
  +1.30914613069e+007
  +1.33979507717e+007
  +1.37116155846e+007
  +1.40326237306e+007
  +1.43611471274e+007
  +1.46973617175e+007
  +1.50414475625e+007
  +1.53935889397e+007
  +1.57539744402e+007
  +1.61227970705e+007
  +1.65002543558e+007
  +1.68865484454e+007
  +1.72818862212e+007
  +1.76864794087e+007
  +1.81005446900e+007
  +1.85243038200e+007
  +1.89579837455e+007
  +1.94018167260e+007
  +1.98560404590e+007
  +2.03208982064e+007
  +2.07966389255e+007
  +2.12835174018e+007
  +2.17817943859e+007
  +2.22917367328e+007
  +2.28136175451e+007
  +2.33477163189e+007
  +2.38943190939e+007
  +2.44537186063e+007
  +2.50262144455e+007
  +2.56121132151e+007
  +2.62117286964e+007
  +2.68253820167e+007
  +2.74534018218e+007
  +2.80961244510e+007
  +2.87538941181e+007
  +2.94270630954e+007
  +3.01159919023e+007
  +3.08210494985e+007
  +3.15426134817e+007
  +3.22810702893e+007
  +3.30368154063e+007
  +3.38102535760e+007
  +3.46017990178e+007
  +3.54118756482e+007
  +3.62409173083e+007
  +3.70893679961e+007
  +3.79576821041e+007
  +3.88463246628e+007
  +3.97557715898e+007
  +4.06865099445e+007
  +4.16390381891e+007
  +4.26138664554e+007
  +4.36115168182e+007
  +4.46325235749e+007
  +4.56774335313e+007
  +4.67468062948e+007
  +4.78412145742e+007
  +4.89612444858e+007
  +5.01074958680e+007
  +5.12805826023e+007
  +5.24811329418e+007
  +5.37097898480e+007
  +5.49672113352e+007
  +5.62540708223e+007
  +5.75710574944e+007
  +5.89188766711e+007
  +6.02982501844e+007
  +6.17099167657e+007
  +6.31546324410e+007
  +6.46331709359e+007
  +6.61463240901e+007
  +6.76949022811e+007
  +6.92797348589e+007
  +7.09016705895e+007
  +7.25615781096e+007
  +7.42603463921e+007
  +7.59988852220e+007
  +7.77781256835e+007
  +7.95990206589e+007
  +8.14625453387e+007
  +8.33696977442e+007
  +8.53214992615e+007
  +8.73189951889e+007
  +8.93632552967e+007
  +9.14553743999e+007
  +9.35964729447e+007
  +9.57876976085e+007
  +9.80302219140e+007
  +1.00325246858e+008
  +1.02674001553e+008
  +1.05077743889e+008
  +1.07537761204e+008
  +1.10055370973e+008
  +1.12631921517e+008
  +1.15268792721e+008
  +1.17967396778e+008
  +1.20729178939e+008
  +1.23555618293e+008
  +1.26448228555e+008
  +1.29408558880e+008
  +1.32438194687e+008
  +1.35538758517e+008
  +1.38711910894e+008
  +1.41959351217e+008
  +1.45282818671e+008
  +1.48684093157e+008
  +1.52164996249e+008
  +1.55727392163e+008
  +1.59373188759e+008
  +1.63104338566e+008
  +1.66922839822e+008
  +1.70830737545e+008
  +1.74830124634e+008
  +1.78923142982e+008
  +1.83111984628e+008
  +1.87398892931e+008
  +1.91786163767e+008
  +1.96276146765e+008
  +2.00871246561e+008
  +2.05573924086e+008
  +2.10386697885e+008
  +2.15312145467e+008
  +2.20352904682e+008
  +2.25511675139e+008
  +2.30791219645e+008
  +2.36194365691e+008
  +2.41724006961e+008
  +2.47383104886e+008
  +2.53174690229e+008
  +2.59101864705e+008
  +2.65167802646e+008
  +2.71375752699e+008
  +2.77729039567e+008
  +2.84231065789e+008
  +2.90885313561e+008
  +2.97695346603e+008
  +3.04664812067e+008
  +3.11797442490e+008
  +3.19097057791e+008
  +3.26567567322e+008
  +3.34212971955e+008
  +3.42037366231e+008
  +3.50044940546e+008
  +3.58239983405e+008
  +3.66626883706e+008
  +3.75210133103e+008
  +3.83994328404e+008
  +3.92984174032e+008
  +4.02184484551e+008
  +4.11600187240e+008
  +4.21236324730e+008
  +4.31098057710e+008
  +4.41190667685e+008
  +4.51519559812e+008
  +4.62090265785e+008
  +4.72908446806e+008
  +4.83979896614e+008
  +4.95310544584e+008
  +5.06906458911e+008
  +5.18773849850e+008
  +5.30919073051e+008
  +5.43348632955e+008
  +5.56069186285e+008
  +5.69087545603e+008
  +5.82410682967e+008
  +5.96045733656e+008
  +6.10000000000e+008
</indep>
<dep dBs21 frequency>
  -5.84745283861e+000
  -5.69060735065e+000
  -5.53538475023e+000
  -5.38182710577e+000
  -5.22997630659e+000
  -5.07987396439e+000
  -4.93156131105e+000
  -4.78507909333e+000
  -4.64046746481e+000
  -4.49776587561e+000
  -4.35701296061e+000
  -4.21824642658e+000
  -4.08150293905e+000
  -3.94681800965e+000
  -3.81422588457e+000
  -3.68375943501e+000
  -3.55545005047e+000
  -3.42932753564e+000
  -3.30542001173e+000
  -3.18375382322e+000
  -3.06435345063e+000
  -2.94724143037e+000
  -2.83243828231e+000
  -2.71996244587e+000
  -2.60983022527e+000
  -2.50205574476e+000
  -2.39665091421e+000
  -2.29362540575e+000
  -2.19298664181e+000
  -2.09473979504e+000
  -1.99888780029e+000
  -1.90543137901e+000
  -1.81436907620e+000
  -1.72569730987e+000
  -1.63941043329e+000
  -1.55550080977e+000
  -1.47395890012e+000
  -1.39477336255e+000
  -1.31793116500e+000
  -1.24341770986e+000
  -1.17121697092e+000
  -1.10131164265e+000
  -1.03368330188e+000
  -9.68312582009e-001
  -9.05179360130e-001
  -8.44262957524e-001
  -7.85542354185e-001
  -7.28996418281e-001
  -6.74604151701e-001
  -6.22344953095e-001
  -5.72198900147e-001
  -5.24147053123e-001
  -4.78171782095e-001
  -4.34257120588e-001
  -3.92389148755e-001
  -3.52556409566e-001
  -3.14750361851e-001
  -2.78965874460e-001
  -2.45201766250e-001
  -2.13461397255e-001
  -1.83753317263e-001
  -1.56091979495e-001
  -1.30498529482e-001
  -1.07001683246e-001
  -8.56387155881e-002
  -6.64565903151e-002
  -4.95132820098e-002
  -3.48793674066e-002
  -2.26400090775e-002
  -1.28975235312e-002
  -5.77483237910e-003
  -1.42025728437e-003
  -1.43638637858e-005
  -1.77992576554e-003
  -6.99662496155e-003
  -1.60229107722e-002
  -2.93286280112e-002
  -4.75437651776e-002
  -7.15312078687e-002
  -1.02495039662e-001
  -1.42141137134e-001
  -1.92914044528e-001
  -2.58343796135e-001
  -3.43548428210e-001
  -4.55951012939e-001
  -6.06279874417e-001
  -8.09917967815e-001
  -1.08863812556e+000
  -1.47269824240e+000
  -2.00322476577e+000
  -2.73502288476e+000
  -3.74110277311e+000
  -5.12391372406e+000
  -7.04877642070e+000
  -9.84913625943e+000
  -1.43915902626e+001
  -2.15476457828e+001
  -1.46694866823e+001
  -8.20919384012e+000
  -4.45606840258e+000
  -3.21750197921e+000
  -4.04021191784e+000
  -5.74416401158e+000
  -7.65461514199e+000
  -9.58308660769e+000
  -1.15120784051e+001
  -1.34655579736e+001
  -1.54680162081e+001
  -1.75312008839e+001
  -1.96517496704e+001
  -2.18148279009e+001
  -2.40002802234e+001
  -2.61882144812e+001
  -2.83624111099e+001
  -3.05115247850e+001
  -3.26288266404e+001
  -3.47112797076e+001
  -3.67584779978e+001
  -3.87717116733e+001
  -4.07532453624e+001
  -4.27058075753e+001
  -4.46322544446e+001
  -4.65353640378e+001
  -4.84177222397e+001
  -5.02816694827e+001
  -5.21292858132e+001
  -5.39623986081e+001
  -5.57826024624e+001
  -5.75912845238e+001
  -5.93896511587e+001
  -6.11787535803e+001
  -6.29595112079e+001
  -6.47327322355e+001
  -6.64991313204e+001
  -6.82593445357e+001
  -7.00139418591e+001
  -7.17634375096e+001
  -7.35082984531e+001
  -7.52489513738e+001
  -7.69857883772e+001
  -7.87191716553e+001
  -8.04494373082e+001
  -8.21768984817e+001
  -8.39018479562e+001
  -8.56245602906e+001
  -8.73452936102e+001
  -8.90642911062e+001
  -9.07817823016e+001
  -9.24979841283e+001
  -9.42131018487e+001
  -9.59273298498e+001
  -9.76408523313e+001
  -9.93538439060e+001
  -1.01066470125e+002
  -1.02778887942e+002
  -1.04491246120e+002
  -1.06203685594e+002
  -1.07916339797e+002
  -1.09629334947e+002
  -1.11342790309e+002
  -1.13056818423e+002
  -1.14771525326e+002
  -1.16487010739e+002
  -1.18203368246e+002
  -1.19920685463e+002
  -1.21639044192e+002
  -1.23358520562e+002
  -1.25079185178e+002
  -1.26801103247e+002
  -1.28524334716e+002
  -1.30248934398e+002
  -1.31974952105e+002
  -1.33702432772e+002
  -1.35431416595e+002
  -1.37161939157e+002
  -1.38894031569e+002
  -1.40627720604e+002
  -1.42363028842e+002
  -1.44099974813e+002
  -1.45838573148e+002
  -1.47578834729e+002
  -1.49320766844e+002
  -1.51064373345e+002
  -1.52809654813e+002
  -1.54556608714e+002
  -1.56305229567e+002
  -1.58055509110e+002
  -1.59807436467e+002
  -1.61560998309e+002
  -1.63316179025e+002
  -1.65072960885e+002
  -1.66831324199e+002
  -1.68591247480e+002
  -1.70352707603e+002
  -1.72115679954e+002
  -1.73880138584e+002
  -1.75646056349e+002
  -1.77413405060e+002
  -1.79182155607e+002
  -1.80952278099e+002
</dep>
<dep dBs31 frequency>
  -1.80941196823e+002
  -1.79171041434e+002
  -1.77402256589e+002
  -1.75634872134e+002
  -1.73868917130e+002
  -1.72104419725e+002
  -1.70341407017e+002
  -1.68579904910e+002
  -1.66819937978e+002
  -1.65061529305e+002
  -1.63304700340e+002
  -1.61549470736e+002
  -1.59795858192e+002
  -1.58043878290e+002
  -1.56293544333e+002
  -1.54544867179e+002
  -1.52797855074e+002
  -1.51052513491e+002
  -1.49308844962e+002
  -1.47566848912e+002
  -1.45826521502e+002
  -1.44087855468e+002
  -1.42350839960e+002
  -1.40615460390e+002
  -1.38881698284e+002
  -1.37149531128e+002
  -1.35418932228e+002
  -1.33689870565e+002
  -1.31962310662e+002
  -1.30236212446e+002
  -1.28511531116e+002
  -1.26788217009e+002
  -1.25066215478e+002
  -1.23345466754e+002
  -1.21625905820e+002
  -1.19907462279e+002
  -1.18190060214e+002
  -1.16473618049e+002
  -1.14758048397e+002
  -1.13043257909e+002
  -1.11329147095e+002
  -1.09615610149e+002
  -1.07902534745e+002
  -1.06189801820e+002
  -1.04477285332e+002
  -1.02764851989e+002
  -1.01052360956e+002
  -9.93396635148e+001
  -9.76266026945e+001
  -9.59130128448e+001
  -9.41987191612e+001
  -9.24835371437e+001
  -9.07672719797e+001
  -8.90497178390e+001
  -8.73306570618e+001
  -8.56098592194e+001
  -8.38870800204e+001
  -8.21620600279e+001
  -8.04345231460e+001
  -7.87041748200e+001
  -7.69706998847e+001
  -7.52337599729e+001
  -7.34929903808e+001
  -7.17479962590e+001
  -6.99983479690e+001
  -6.82435754140e+001
  -6.64831611158e+001
  -6.47165317745e+001
  -6.29430480158e+001
  -6.11619920088e+001
  -5.93725526445e+001
  -5.75738080069e+001
  -5.57647049945e+001
  -5.39440361879e+001
  -5.21104144868e+001
  -5.02622467546e+001
  -4.83977088450e+001
  -4.65147261340e+001
  -4.46109662882e+001
  -4.26838547550e+001
  -4.07306286630e+001
  -3.87484516327e+001
  -3.67346201777e+001
  -3.46869005951e+001
  -3.26040398625e+001
  -3.04864868493e+001
  -2.83373250150e+001
  -2.61633281274e+001
  -2.39758747317e+001
  -2.17911897220e+001
  -1.96291222985e+001
  -1.75097204393e+001
  -1.54476498436e+001
  -1.34460753651e+001
  -1.14930817721e+001
  -9.56411377448e+000
  -7.63537267986e+000
  -5.72518651144e+000
  -4.02489316645e+000
  -3.21556742931e+000
  -4.47734798889e+000
  -8.25249494196e+000
  -1.47433702837e+001
  -2.15184819011e+001
  -1.43361396658e+001
  -9.81570873807e+000
  -7.02536810870e+000
  -5.10640860589e+000
  -3.72777975239e+000
  -2.72494716744e+000
  -1.99573985633e+000
  -1.46726776419e+000
  -1.08480629142e+000
  -8.07303106361e-001
  -6.04571249205e-001
  -4.54902155527e-001
  -3.42967836756e-001
  -2.58085062342e-001
  -1.92866791591e-001
  -1.42223341327e-001
  -1.02646799887e-001
  -7.17097957012e-002
  -4.77197212121e-002
  -2.94826814798e-002
  -1.61435379707e-002
  -7.07810399269e-003
  -1.82078104283e-003
  -1.61214530075e-005
  -1.38645217686e-003
  -5.71022280512e-003
  -1.28074770895e-002
  -2.25300321535e-002
  -3.47547541029e-002
  -4.93788623288e-002
  -6.63165600905e-002
  -8.54965329415e-002
  -1.06860018325e-001
  -1.30359256018e-001
  -1.55956198308e-001
  -1.83621403355e-001
  -2.13333063432e-001
  -2.45076137450e-001
  -2.78841568037e-001
  -3.14625570024e-001
  -3.52428981060e-001
  -3.92256667406e-001
  -4.34116979250e-001
  -4.78021250734e-001
  -5.23983340368e-001
  -5.72019207935e-001
  -6.22146524289e-001
  -6.74384310788e-001
  -7.28752605404e-001
  -7.85272152879e-001
  -8.43964116607e-001
  -9.04849810241e-001
  -9.67950447330e-001
  -1.03328690755e+000
  -1.10087951842e+000
  -1.17074785152e+000
  -1.24291053262e+000
  -1.31738506505e+000
  -1.39418766620e+000
  -1.47333311659e+000
  -1.55483462177e+000
  -1.63870368666e+000
  -1.72495000261e+000
  -1.81358134704e+000
  -1.90460349586e+000
  -1.99802014858e+000
  -2.09383286624e+000
  -2.19204102217e+000
  -2.29264176533e+000
  -2.39562999643e+000
  -2.50099835634e+000
  -2.60873722676e+000
  -2.71883474271e+000
  -2.83127681649e+000
  -2.94604717264e+000
  -3.06312739340e+000
  -3.18249697396e+000
  -3.30413338699e+000
  -3.42801215561e+000
  -3.55410693415e+000
  -3.68238959579e+000
  -3.81283032644e+000
  -3.94539772375e+000
  -4.08005890072e+000
  -4.21677959285e+000
  -4.35552426801e+000
  -4.49625623837e+000
  -4.63893777336e+000
  -4.78353021314e+000
  -4.92999408167e+000
  -5.07828919879e+000
  -5.22837479070e+000
  -5.38020959821e+000
  -5.53375198222e+000
  -5.68896002608e+000
  -5.84579163422e+000
</dep>
<dep dBs32 frequency>
  -1.80941262621e+002
  -1.79171108955e+002
  -1.77402325788e+002
  -1.75634942954e+002
  -1.73868989500e+002
  -1.72104493558e+002
  -1.70341482207e+002
  -1.68579981334e+002
  -1.66820015488e+002
  -1.65061607731e+002
  -1.63304779487e+002
  -1.61549550378e+002
  -1.59795938073e+002
  -1.58043958120e+002
  -1.56293623783e+002
  -1.54544945880e+002
  -1.52797932614e+002
  -1.51052589407e+002
  -1.49308918740e+002
  -1.47566919981e+002
  -1.45826589231e+002
  -1.44087919159e+002
  -1.42350898843e+002
  -1.40615513621e+002
  -1.38881744933e+002
  -1.37149570178e+002
  -1.35418962567e+002
  -1.33689890978e+002
  -1.31962319827e+002
  -1.30236208920e+002
  -1.28511513331e+002
  -1.26788183265e+002
  -1.25066163925e+002
  -1.23345395388e+002
  -1.21625812469e+002
  -1.19907344588e+002
  -1.18189915628e+002
  -1.16473443800e+002
  -1.14757841482e+002
  -1.13043015061e+002
  -1.11328864765e+002
  -1.09615284466e+002
  -1.07902161484e+002
  -1.06189376354e+002
  -1.04476802582e+002
  -1.02764306368e+002
  -1.01051746294e+002
  -9.93389729864e+001
  -9.76258287240e+001
  -9.59121470121e+001
  -9.41977520948e+001
  -9.24824584114e+001
  -9.07660699820e+001
  -8.90483797160e+001
  -8.73291686295e+001
  -8.56082049595e+001
  -8.38852431592e+001
  -8.21600227535e+001
  -8.04322670329e+001
  -7.87016815584e+001
  -7.69679524438e+001
  -7.52307443770e+001
  -7.34896983330e+001
  -7.17444289261e+001
  -6.99945213383e+001
  -6.82395277545e+001
  -6.64789632315e+001
  -6.47123009221e+001
  -6.29389665889e+001
  -6.11583323559e+001
  -5.93697096955e+001
  -5.75723417204e+001
  -5.57653949902e+001
  -5.39479512518e+001
  -5.21189998824e+001
  -5.02774323283e+001
  -4.84220406349e+001
  -4.65515233635e+001
  -4.46645039391e+001
  -4.27595690036e+001
  -4.08353378645e+001
  -3.88905788289e+001
  -3.69243939566e+001
  -3.49364995958e+001
  -3.29276329645e+001
  -3.09001076998e+001
  -2.88585086065e+001
  -2.68104318345e+001
  -2.47670092096e+001
  -2.27426965848e+001
  -2.07535510358e+001
  -1.88132656092e+001
  -1.69269931819e+001
  -1.50845109408e+001
  -1.32556504293e+001
  -1.13911766436e+001
  -9.43348832617e+000
  -7.35302097345e+000
  -5.26938176486e+000
  -3.74726898313e+000
  -3.75566491141e+000
  -5.28731688953e+000
  -7.37208235010e+000
  -9.45104018801e+000
  -1.14071662814e+001
  -1.32707038722e+001
  -1.50993381176e+001
  -1.69421898506e+001
  -1.88292298405e+001
  -2.07704636664e+001
  -2.27605545718e+001
  -2.47856886069e+001
  -2.68297516934e+001
  -2.88782780251e+001
  -3.09201525879e+001
  -3.29478071977e+001
  -3.49566868630e+001
  -3.69445051536e+001
  -3.89105478961e+001
  -4.08551175073e+001
  -4.27791268764e+001
  -4.46838194448e+001
  -4.65705850386e+001
  -4.84408440315e+001
  -5.02959782991e+001
  -5.21372931901e+001
  -5.39659994380e+001
  -5.57832074595e+001
  -5.75899290017e+001
  -5.93870828532e+001
  -6.11755025299e+001
  -6.29559446425e+001
  -6.47290971835e+001
  -6.64955873126e+001
  -6.82559884356e+001
  -7.00108265058e+001
  -7.17605855535e+001
  -7.35057124955e+001
  -7.52466212916e+001
  -7.69836965283e+001
  -7.87172965028e+001
  -8.04477558790e+001
  -8.21753879778e+001
  -8.39004867562e+001
  -8.56233285236e+001
  -8.73441734325e+001
  -8.90632667795e+001
  -9.07808401432e+001
  -9.24971123829e+001
  -9.42122905171e+001
  -9.59265704988e+001
  -9.76401379008e+001
  -9.93531685230e+001
  -1.01065828931e+002
  -1.02778276935e+002
  -1.04490662017e+002
  -1.06203125709e+002
  -1.07915801938e+002
  -1.09628817324e+002
  -1.11342291457e+002
  -1.13056337144e+002
  -1.14771060632e+002
  -1.16486561809e+002
  -1.18202934392e+002
  -1.19920266100e+002
  -1.21638638815e+002
  -1.23358128728e+002
  -1.25078806488e+002
  -1.26800737339e+002
  -1.28523981253e+002
  -1.30248593061e+002
  -1.31974622587e+002
  -1.33702114778e+002
  -1.35431109833e+002
  -1.37161643342e+002
  -1.38893746417e+002
  -1.40627445834e+002
  -1.42362764174e+002
  -1.44099719970e+002
  -1.45838327851e+002
  -1.47578598703e+002
  -1.49320539814e+002
  -1.51064155040e+002
  -1.52809444963e+002
  -1.54556407053e+002
  -1.56305035831e+002
  -1.58055323041e+002
  -1.59807257809e+002
  -1.61560826810e+002
  -1.63316014440e+002
  -1.65072802971e+002
  -1.66831172720e+002
  -1.68591102205e+002
  -1.70352568307e+002
  -1.72115546417e+002
  -1.73880010591e+002
  -1.75645933693e+002
  -1.77413287537e+002
  -1.79182043021e+002
  -1.80952170259e+002
</dep>
<dep S[2,2] frequency>
  +1.01051672115e-001+j8.54178001183e-001
  +1.32483999374e-001+j8.44222583968e-001
  +1.63933857447e-001+j8.32811133892e-001
  +1.95319977365e-001+j8.19900978903e-001
  +2.26555303481e-001+j8.05453168307e-001
  +2.57547009852e-001+j7.89433068158e-001
  +2.88196565926e-001+j7.71810985613e-001
  +3.18399856807e-001+j7.52562819514e-001
  +3.48047363427e-001+j7.31670733818e-001
  +3.77024407904e-001+j7.09123849810e-001
  +4.05211469334e-001+j6.84918952305e-001
  +4.32484575074e-001+j6.59061204306e-001
  +4.58715772380e-001+j6.31564863761e-001
  +4.83773684905e-001+j6.02453995330e-001
  +5.07524158215e-001+j5.71763169161e-001
  +5.29830997910e-001+j5.39538137943e-001
  +5.50556803400e-001+j5.05836482600e-001
  +5.69563899626e-001+j4.70728216213e-001
  +5.86715368227e-001+j4.34296334941e-001
  +6.01876178699e-001+j3.96637303924e-001
  +6.14914419055e-001+j3.57861465419e-001
  +6.25702624294e-001+j3.18093355681e-001
  +6.34119199689e-001+j2.77471916482e-001
  +6.40049934455e-001+j2.36150586542e-001
  +6.43389599742e-001+j1.94297257618e-001
  +6.44043623191e-001+j1.52094079583e-001
  +6.41929830326e-001+j1.09737098472e-001
  +6.36980241021e-001+j6.74357112871e-002
  +6.29142906968e-001+j2.54119212446e-002
  +6.18383773616e-001-j1.61006226962e-002
  +6.04688547376e-001-j5.68578179136e-002
  +5.88064545946e-001-j9.66065471227e-002
  +5.68542506505e-001-j1.35086378757e-001
  +5.46178323095e-001-j1.72031541984e-001
  +5.21054680911e-001-j2.07173187978e-001
  +4.93282551330e-001-j2.40241946923e-001
  +4.63002507402e-001-j2.70970787496e-001
  +4.30385815269e-001-j2.99098182121e-001
  +3.95635252502e-001-j3.24371577030e-001
  +3.58985599858e-001-j3.46551160903e-001
  +3.20703748474e-001-j3.65413919563e-001
  +2.81088360166e-001-j3.80757956548e-001
  +2.40469014525e-001-j3.92407050402e-001
  +1.99204773071e-001-j4.00215408863e-001
  +1.57682088126e-001-j4.04072567791e-001
  +1.16311982682e-001-j4.03908368395e-001
  +7.55264277903e-002-j3.99697930028e-001
  +3.57738463547e-002-j3.91466517474e-001
  -2.48632264944e-003-j3.79294181117e-001
  -3.87900569227e-002-j3.63320025866e-001
  -7.26762250708e-002-j3.43745940304e-001
  -1.03695128738e-001-j3.20839591588e-001
  -1.31418114705e-001-j2.94936464682e-001
