<Qucs Dataset 0.0.17>
<indep frequency 200>
  +3.00000000000e+007
  +3.01820536051e+007
  +3.03652119940e+007
  +3.05494818712e+007
  +3.07348699814e+007
  +3.09213831109e+007
  +3.11090280865e+007
  +3.12978117770e+007
  +3.14877410925e+007
  +3.16788229853e+007
  +3.18710644496e+007
  +3.20644725223e+007
  +3.22590542829e+007
  +3.24548168539e+007
  +3.26517674010e+007
  +3.28499131332e+007
  +3.30492613037e+007
  +3.32498192092e+007
  +3.34515941911e+007
  +3.36545936351e+007
  +3.38588249717e+007
  +3.40642956767e+007
  +3.42710132712e+007
  +3.44789853217e+007
  +3.46882194410e+007
  +3.48987232878e+007
  +3.51105045674e+007
  +3.53235710318e+007
  +3.55379304802e+007
  +3.57535907589e+007
  +3.59705597620e+007
  +3.61888454314e+007
  +3.64084557573e+007
  +3.66293987782e+007
  +3.68516825815e+007
  +3.70753153038e+007
  +3.73003051308e+007
  +3.75266602982e+007
  +3.77543890914e+007
  +3.79834998461e+007
  +3.82140009488e+007
  +3.84459008368e+007
  +3.86792079984e+007
  +3.89139309737e+007
  +3.91500783544e+007
  +3.93876587846e+007
  +3.96266809605e+007
  +3.98671536314e+007
  +4.01090855995e+007
  +4.03524857206e+007
  +4.05973629039e+007
  +4.08437261130e+007
  +4.10915843659e+007
  +4.13409467350e+007
  +4.15918223480e+007
  +4.18442203881e+007
  +4.20981500939e+007
  +4.23536207603e+007
  +4.26106417386e+007
  +4.28692224367e+007
  +4.31293723198e+007
  +4.33911009104e+007
  +4.36544177887e+007
  +4.39193325933e+007
  +4.41858550210e+007
  +4.44539948277e+007
  +4.47237618284e+007
  +4.49951658975e+007
  +4.52682169697e+007
  +4.55429250395e+007
  +4.58193001625e+007
  +4.60973524551e+007
  +4.63770920951e+007
  +4.66585293221e+007
  +4.69416744379e+007
  +4.72265378066e+007
  +4.75131298554e+007
  +4.78014610747e+007
  +4.80915420186e+007
  +4.83833833053e+007
  +4.86769956172e+007
  +4.89723897018e+007
  +4.92695763716e+007
  +4.95685665050e+007
  +4.98693710461e+007
  +5.01720010055e+007
  +5.04764674608e+007
  +5.07827815566e+007
  +5.10909545052e+007
  +5.14009975871e+007
  +5.17129221510e+007
  +5.20267396146e+007
  +5.23424614649e+007
  +5.26600992585e+007
  +5.29796646223e+007
  +5.33011692537e+007
  +5.36246249210e+007
  +5.39500434640e+007
  +5.42774367943e+007
  +5.46068168957e+007
  +5.49381958250e+007
  +5.52715857120e+007
  +5.56069987599e+007
  +5.59444472464e+007
  +5.62839435232e+007
  +5.66255000175e+007
  +5.69691292315e+007
  +5.73148437433e+007
  +5.76626562077e+007
  +5.80125793557e+007
  +5.83646259962e+007
  +5.87188090153e+007
  +5.90751413776e+007
  +5.94336361262e+007
  +5.97943063836e+007
  +6.01571653516e+007
  +6.05222263125e+007
  +6.08895026288e+007
  +6.12590077443e+007
  +6.16307551845e+007
  +6.20047585567e+007
  +6.23810315510e+007
  +6.27595879405e+007
  +6.31404415818e+007
  +6.35236064157e+007
  +6.39090964676e+007
  +6.42969258480e+007
  +6.46871087529e+007
  +6.50796594646e+007
  +6.54745923521e+007
  +6.58719218714e+007
  +6.62716625665e+007
  +6.66738290694e+007
  +6.70784361010e+007
  +6.74854984715e+007
  +6.78950310812e+007
  +6.83070489204e+007
  +6.87215670707e+007
  +6.91386007052e+007
  +6.95581650888e+007
  +6.99802755795e+007
  +7.04049476280e+007
  +7.08321967791e+007
  +7.12620386718e+007
  +7.16944890400e+007
  +7.21295637132e+007
  +7.25672786168e+007
  +7.30076497730e+007
  +7.34506933010e+007
  +7.38964254181e+007
  +7.43448624398e+007
  +7.47960207808e+007
  +7.52499169551e+007
  +7.57065675773e+007
  +7.61659893625e+007
  +7.66281991275e+007
  +7.70932137910e+007
  +7.75610503743e+007
  +7.80317260022e+007
  +7.85052579032e+007
  +7.89816634106e+007
  +7.94609599626e+007
  +7.99431651035e+007
  +8.04282964838e+007
  +8.09163718614e+007
  +8.14074091017e+007
  +8.19014261787e+007
  +8.23984411753e+007
  +8.28984722843e+007
  +8.34015378089e+007
  +8.39076561632e+007
  +8.44168458732e+007
  +8.49291255773e+007
  +8.54445140269e+007
  +8.59630300874e+007
  +8.64846927385e+007
  +8.70095210752e+007
  +8.75375343082e+007
  +8.80687517649e+007
  +8.86031928901e+007
  +8.91408772464e+007
  +8.96818245152e+007
  +9.02260544974e+007
  +9.07735871139e+007
  +9.13244424067e+007
  +9.18786405391e+007
  +9.24362017972e+007
  +9.29971465898e+007
  +9.35614954499e+007
  +9.41292690347e+007
  +9.47004881272e+007
  +9.52751736361e+007
  +9.58533465974e+007
  +9.64350281743e+007
  +9.70202396589e+007
  +9.76090024722e+007
  +9.82013381652e+007
  +9.87972684198e+007
  +9.93968150495e+007
  +1.00000000000e+008
</indep>
<dep dBs21 frequency>
  -6.38235696049e+000
  -6.27954788707e+000
  -6.17412327934e+000
  -6.06608878770e+000
  -5.95545688229e+000
  -5.84224773106e+000
  -5.72649016872e+000
  -5.60822276270e+000
  -5.48749498178e+000
  -5.36436847219e+000
  -5.23891844485e+000
  -5.11123517544e+000
  -4.98142561677e+000
  -4.84961511930e+000
  -4.71594925168e+000
  -4.58059570746e+000
  -4.44374627743e+000
  -4.30561885873e+000
  -4.16645946160e+000
  -4.02654416325e+000
  -3.88618094446e+000
  -3.74571132966e+000
  -3.60551173488e+000
  -3.46599441098e+000
  -3.32760785328e+000
  -3.19083653379e+000
  -3.05619980102e+000
  -2.92424978719e+000
  -2.79556816535e+000
  -2.67076161324e+000
  -2.55045586876e+000
  -2.43528830608e+000
  -2.32589902316e+000
  -2.22292050995e+000
  -2.12696606003e+000
  -2.03861719130e+000
  -1.95841044590e+000
  -1.88682403652e+000
  -1.82426488252e+000
  -1.77105662543e+000
  -1.72742921713e+000
  -1.69351063146e+000
  -1.66932115855e+000
  -1.65477060704e+000
  -1.64965857319e+000
  -1.65367775416e+000
  -1.66642010269e+000
  -1.68738546156e+000
  -1.71599219138e+000
  -1.75158922631e+000
  -1.79346896126e+000
  -1.84088038996e+000
  -1.89304196748e+000
  -1.94915375415e+000
  -2.00840849771e+000
  -2.07000141613e+000
  -2.13313854503e+000
  -2.19704360434e+000
  -2.26096341421e+000
  -2.32417194799e+000
  -2.38597315161e+000
  -2.44570268404e+000
  -2.50272874617e+000
  -2.55645216827e+000
  -2.60630592105e+000
  -2.65175420613e+000
  -2.69229126976e+000
  -2.72744007069e+000
  -2.75675092191e+000
  -2.77980021504e+000
  -2.79618932945e+000
  -2.80554382300e+000
  -2.80751300086e+000
  -2.80176996083e+000
  -2.78801222061e+000
  -2.76596304219e+000
  -2.73537358301e+000
  -2.69602602090e+000
  -2.64773782099e+000
  -2.59036733537e+000
  -2.52382094988e+000
  -2.44806201365e+000
  -2.36312180078e+000
  -2.26911275452e+000
  -2.16624424029e+000
  -2.05484097165e+000
  -1.93536415178e+000
  -1.80843516546e+000
  -1.67486133039e+000
  -1.53566273434e+000
  -1.39209851165e+000
  -1.24569002843e+000
  -1.09823736545e+000
  -9.51824293424e-001
  -8.08805813282e-001
  -6.71771611898e-001
  -5.43478935600e-001
  -4.26749979210e-001
  -3.24332435855e-001
  -2.38727539231e-001
  -1.71997311659e-001
  -1.25570543744e-001
  -1.00073347100e-001
  -9.52130106691e-002
  -1.09742485076e-001
  -1.41528344191e-001
  -1.87741300959e-001
  -2.45191221718e-001
  -3.10845249914e-001
  -3.82605416020e-001
  -4.60486389547e-001
  -5.48420747713e-001
  -6.56988215914e-001
  -8.07268433261e-001
  -1.03536256981e+000
  -1.39524981520e+000
  -1.95446378739e+000
  -2.77594683526e+000
  -3.88799359158e+000
  -5.26094701120e+000
  -6.81045660018e+000
  -8.42284254893e+000
  -9.98254132530e+000
  -1.13923977187e+001
  -1.25891140392e+001
  -1.35528686673e+001
  -1.43048114220e+001
  -1.48919695869e+001
  -1.53686015350e+001
  -1.57831446376e+001
  -1.61729756062e+001
  -1.65643669223e+001
  -1.69745293486e+001
  -1.74139269876e+001
  -1.78881953036e+001
  -1.83995675181e+001
  -1.89479062420e+001
  -1.95314585873e+001
  -2.01474226683e+001
  -2.07923796471e+001
  -2.14626222564e+001
  -2.21543984015e+001
  -2.28640834044e+001
  -2.35882929868e+001
  -2.43239487108e+001
  -2.50683070237e+001
  -2.58189619460e+001
  -2.65738298860e+001
  -2.73311233236e+001
  -2.80893184198e+001
  -2.88471201252e+001
  -2.96034271592e+001
  -3.03572983134e+001
  -3.11079208683e+001
  -3.18545814624e+001
  -3.25966394648e+001
  -3.33335027377e+001
  -3.40646056059e+001
  -3.47893888405e+001
  -3.55072815101e+001
  -3.62176846343e+001
  -3.69199566837e+001
  -3.76134011124e+001
  -3.82972562593e+001
  -3.89706881280e+001
  -3.96327867153e+001
  -4.02825667068e+001
  -4.09189734547e+001
  -4.15408951703e+001
  -4.21471821557e+001
  -4.27366736358e+001
  -4.33082322910e+001
  -4.38607859395e+001
  -4.43933749959e+001
  -4.49052034303e+001
  -4.53956900867e+001
  -4.58645165687e+001
  -4.63116676158e+001
  -4.67374601164e+001
  -4.71425576652e+001
  -4.75279688081e+001
  -4.78950286438e+001
  -4.82453650289e+001
  -4.85808519883e+001
  -4.89035538864e+001
  -4.92156643419e+001
  -4.95194438076e+001
  -4.98171592639e+001
  -5.01110287659e+001
  -5.04031727780e+001
  -5.06955734637e+001
  -5.09900424459e+001
  -5.12881970482e+001
  -5.15914446678e+001
  -5.19009746863e+001
  -5.22177571652e+001
  -5.25425474764e+001
  -5.28758959514e+001
  -5.32181615988e+001
  -5.35695289305e+001
</dep>
<dep dBs31 frequency>
  -6.92127600991e+001
  -6.87544435620e+001
  -6.82953463488e+001
  -6.78355201238e+001
  -6.73750240167e+001
  -6.69139254513e+001
  -6.64523010505e+001
  -6.59902376191e+001
  -6.55278332095e+001
  -6.50651982698e+001
  -6.46024568757e+001
  -6.41397480410e+001
  -6.36772271038e+001
  -6.32150671757e+001
  -6.27534606401e+001
  -6.22926206777e+001
  -6.18327827880e+001
  -6.13742062691e+001
  -6.09171756024e+001
  -6.04620016794e+001
  -6.00090227877e+001
  -5.95586052606e+001
  -5.91111436723e+001
  -5.86670604430e+001
  -5.82268046973e+001
  -5.77908502039e+001
  -5.73596922065e+001
  -5.69338429514e+001
  -5.65138257132e+001
  -5.61001671365e+001
  -5.56933877341e+001
  -5.52939904295e+001
  -5.49024470942e+001
  -5.45191831182e+001
  -5.41445601515e+001
  -5.37788572806e+001
  -5.34222510312e+001
  -5.30747947232e+001
  -5.27363978334e+001
  -5.24068061311e+001
  -5.20855834456e+001
  -5.17720959843e+001
  -5.14655001551e+001
  -5.11647348535e+001
  -5.08685191503e+001
  -5.05753562771e+001
  -5.02835447236e+001
  -4.99911971459e+001
  -4.96962675948e+001
  -4.93965872840e+001
  -4.90899087053e+001
  -4.87739573260e+001
  -4.84464893999e+001
  -4.81053536246e+001
  -4.77485535901e+001
  -4.73743073289e+001
  -4.69810999534e+001
  -4.65677254954e+001
  -4.61333147125e+001
  -4.56773467622e+001
  -4.51996441304e+001
  -4.47003517886e+001
  -4.41799030011e+001
  -4.36389752597e+001
  -4.30784403713e+001
  -4.24993127258e+001
  -4.19026993175e+001
  -4.12897543286e+001
  -4.06616401831e+001
  -4.00194960908e+001
  -3.93644143422e+001
  -3.86974240363e+001
  -3.80194815484e+001
  -3.73314668460e+001
  -3.66341847117e+001
  -3.59283699876e+001
  -3.52146960762e+001
  -3.44937860905e+001
  -3.37662262150e+001
  -3.30325810025e+001
  -3.22934104830e+001
  -3.15492890860e+001
  -3.08008264815e+001
  -3.00486905080e+001
  -2.92936323837e+001
  -2.85365143647e+001
  -2.77783399079e+001
  -2.70202861854e+001
  -2.62637384499e+001
  -2.55103252164e+001
  -2.47619524633e+001
  -2.40208340266e+001
  -2.32895140407e+001
  -2.25708757063e+001
  -2.18681289415e+001
  -2.11847677847e+001
  -2.05244870368e+001
  -1.98910467658e+001
  -1.92880729145e+001
  -1.87187816748e+001
  -1.81856127673e+001
  -1.76897492575e+001
  -1.72304850825e+001
  -1.68043733275e+001
  -1.64040525920e+001
  -1.60166297892e+001
  -1.56215667946e+001
  -1.51883325668e+001
  -1.46748778567e+001
  -1.40293185961e+001
  -1.31981409068e+001
  -1.21422172011e+001
  -1.08554651768e+001
  -9.37564054793e+000
  -7.78133704318e+000
  -6.17931391132e+000
  -4.68736080401e+000
  -3.41105288397e+000
  -2.41503963769e+000
  -1.70437535642e+000
  -1.23308596618e+000
  -9.33206800754e-001
  -7.41365914204e-001
  -6.10820891408e-001
  -5.12034568220e-001
  -4.28680543615e-001
  -3.53251241983e-001
  -2.83658227126e-001
  -2.20910277323e-001
  -1.67593085680e-001
  -1.26874167005e-001
  -1.01842071933e-001
  -9.50684963505e-002
  -1.08335091422e-001
  -1.42495156900e-001
  -1.97450556002e-001
  -2.72223535167e-001
  -3.65098473233e-001
  -4.73805076831e-001
  -5.95714911409e-001
  -7.28027673523e-001
  -8.67930819663e-001
  -1.01272402443e+000
  -1.15990673972e+000
  -1.30723194696e+000
  -1.45273188906e+000
  -1.59472249608e+000
  -1.73179294089e+000
  -1.86278582085e+000
  -1.98677227629e+000
  -2.10302519128e+000
  -2.21099261658e+000
  -2.31027275764e+000
  -2.40059127964e+000
  -2.48178126816e+000
  -2.55376591143e+000
  -2.61654380164e+000
  -2.67017665895e+000
  -2.71477923744e+000
  -2.75051116056e+000
  -2.77757044041e+000
  -2.79618845355e+000
  -2.80662616813e+000
  -2.80917144099e+000
  -2.80413722545e+000
  -2.79186055025e+000
  -2.77270214636e+000
  -2.74704661079e+000
  -2.71530300541e+000
  -2.67790579336e+000
  -2.63531601695e+000
  -2.58802261818e+000
  -2.53654379750e+000
  -2.48142829754e+000
  -2.42325648781e+000
  -2.36264111398e+000
  -2.30022756285e+000
  -2.23669348311e+000
  -2.17274759409e+000
  -2.10912751279e+000
  -2.04659643577e+000
  -1.98593853052e+000
  -1.92795292246e+000
  -1.87344621217e+000
  -1.82322352225e+000
  -1.77807815587e+000
  -1.73878004413e+000
  -1.70606326416e+000
  -1.68061301364e+000
  -1.66305252209e+000
  -1.65393045133e+000
  -1.65370937706e+000
  -1.66275594009e+000
  -1.68133320467e+000
  -1.70959566257e+000
  -1.74758718123e+000
  -1.79524202466e+000
  -1.85238889310e+000
  -1.91875775030e+000
  -1.99398905299e+000
</dep>
<dep dBs32 frequency>
  -6.95885153645e+001
  -6.91253422441e+001
  -6.86588780170e+001
  -6.81891161743e+001
  -6.77160567434e+001
  -6.72397071572e+001
  -6.67600832142e+001
  -6.62772101347e+001
  -6.57911237197e+001
  -6.53018716170e+001
  -6.48095146971e+001
  -6.43141285430e+001
  -6.38158050503e+001
  -6.33146541360e+001
  -6.28108055462e+001
  -6.23044107500e+001
  -6.17956448980e+001
  -6.12847088169e+001
  -6.07718310017e+001
  -6.02572695536e+001
  -5.97413140006e+001
  -5.92242869204e+001
  -5.87065452705e+001
  -5.81884813128e+001
  -5.76705230037e+001
  -5.71531337060e+001
  -5.66368110670e+001
  -5.61220849035e+001
  -5.56095139354e+001
  -5.50996812244e+001
  -5.45931882041e+001
  -5.40906472284e+001
  -5.35926726304e+001
  -5.30998703609e+001
  -5.26128263678e+001
  -5.21320939836e+001
  -5.16581806903e+001
  -5.11915347287e+001
  -5.07325320951e+001
  -5.02814645160e+001
  -4.98385289925e+001
  -4.94038194664e+001
  -4.89773210652e+001
  -4.85589072537e+001
  -4.81483400484e+001
  -4.77452732729e+001
  -4.73492586523e+001
  -4.69597543821e+001
  -4.65761356879e+001
  -4.61977068078e+001
  -4.58237138020e+001
  -4.54533576086e+001
  -4.50858068180e+001
  -4.47202097236e+001
  -4.43557053036e+001
  -4.39914328977e+001
  -4.36265404405e+001
  -4.32601912069e+001
  -4.28915690972e+001
  -4.25198825511e+001
  -4.21443672177e+001
  -4.17642875352e+001
  -4.13789373875e+001
  -4.09876400068e+001
  -4.05897472849e+001
  -4.01846386487e+001
  -3.97717196424e+001
  -3.93504203447e+001
  -3.89201937404e+001
  -3.84805141512e+001
  -3.80308758279e+001
  -3.75707917964e+001
  -3.70997930523e+001
  -3.66174281993e+001
  -3.61232636327e+001
  -3.56168843809e+001
  -3.50978957279e+001
  -3.45659257607e+001
  -3.40206290041e+001
  -3.34616913263e+001
  -3.28888363239e+001
  -3.23018334137e+001
  -3.17005078713e+001
  -3.10847530567e+001
  -3.04545450432e+001
  -2.98099597987e+001
  -2.91511929484e+001
  -2.84785819376e+001
  -2.77926300842e+001
  -2.70940315261e+001
  -2.63836953938e+001
  -2.56627666513e+001
  -2.49326399642e+001
  -2.41949617583e+001
  -2.34516145054e+001
  -2.27046765516e+001
  -2.19563509509e+001
  -2.12088583675e+001
  -2.04642926597e+001
  -1.97244434592e+001
  -1.89905974609e+001
  -1.82633379891e+001
  -1.75423687865e+001
  -1.68263909636e+001
  -1.61130608117e+001
  -1.53990519766e+001
  -1.46802421539e+001
  -1.39520480299e+001
  -1.32099499672e+001
  -1.24502874834e+001
  -1.16714736969e+001
  -1.08758681931e+001
  -1.00726241006e+001
  -9.28173966815e+000
  -8.53890788104e+000
  -7.89890375394e+000
  -7.43210101813e+000
  -7.20761467253e+000
  -7.26511646131e+000
  -7.59399527808e+000
  -8.13924857824e+000
  -8.82826863861e+000
  -9.59579609501e+000
  -1.03948637187e+001
  -1.11966699593e+001
  -1.19861453693e+001
  -1.27572915874e+001
  -1.35096200013e+001
  -1.42457351678e+001
  -1.49697612585e+001
  -1.56863190745e+001
  -1.63998527320e+001
  -1.71141883912e+001
  -1.78322629807e+001
  -1.85559907212e+001
  -1.92862463270e+001
  -2.00229436865e+001
  -2.07651845239e+001
  -2.15114482592e+001
  -2.22597947968e+001
  -2.30080565757e+001
  -2.37540034734e+001
  -2.44954720450e+001
  -2.52304573946e+001
  -2.59571708048e+001
  -2.66740689478e+001
  -2.73798614310e+001
  -2.80735031482e+001
  -2.87541769677e+001
  -2.94212710980e+001
  -3.00743543065e+001
  -3.07131511546e+001
  -3.13375186166e+001
  -3.19474248524e+001
  -3.25429304932e+001
  -3.31241725192e+001
  -3.36913506427e+001
  -3.42447160116e+001
  -3.47845620038e+001
  -3.53112168702e+001
  -3.58250379874e+001
  -3.63264075031e+001
  -3.68157291732e+001
  -3.72934262164e+001
  -3.77599400318e+001
  -3.82157296456e+001
  -3.86612717662e+001
  -3.90970613419e+001
  -3.95236125218e+001
  -3.99414599260e+001
  -4.03511601304e+001
  -4.07532932721e+001
  -4.11484646695e+001
  -4.15373063499e+001
  -4.19204783582e+001
  -4.22986697156e+001
  -4.26725988776e+001
  -4.30430135355e+001
  -4.34106895918e+001
  -4.37764291441e+001
  -4.41410573115e+001
  -4.45054177624e+001
  -4.48703668280e+001
  -4.52367661376e+001
  -4.56054737770e+001
  -4.59773340502e+001
  -4.63531660247e+001
  -4.67337511402e+001
  -4.71198202695e+001
  -4.75120407097e+001
  -4.79110036588e+001
  -4.83172127685e+001
  -4.87310743622e+001
  -4.91528898571e+001
  -4.95828508273e+001
  -5.00210370088e+001
  -5.04674173735e+001
  -5.09218542185e+001
  -5.13841100417e+001
  -5.18538568158e+001
</dep>
<dep S[2,2] frequency>
  -8.73895181049e-001+j7.92955772459e-002
  -8.68071126939e-001+j1.04512917214e-001
  -8.61267439226e-001+j1.30005378329e-001
  -8.53431269739e-001+j1.55755578857e-001
  -8.44506606288e-001+j1.81742189036e-001
  -8.34434255839e-001+j2.07939360984e-001
  -8.23151872067e-001+j2.34316095284e-001
  -8.10594039228e-001+j2.60835540451e-001
  -7.96692426490e-001+j2.87454222341e-001
  -7.81376029318e-001+j3.14121201777e-001
  -7.64571517221e-001+j3.40777160567e-001
  -7.46203710047e-001+j3.67353418566e-001
  -7.26196207998e-001+j3.93770887888e-001
  -7.04472203506e-001+j4.19938974803e-001
  -6.80955505850e-001+j4.45754445585e-001
  -6.55571811598e-001+j4.71100279732e-001
  -6.28250255331e-001+j4.95844542719e-001
  -5.98925275030e-001+j5.19839321006e-001
  -5.67538824471e-001+j5.42919774256e-001
  -5.34042960098e-001+j5.64903373714e-001
  -4.98402821343e-001+j5.85589410949e-001
  -4.60600010116e-001+j6.04758877173e-001
  -4.20636356299e-001+j6.22174829008e-001
  -3.78538030509e-001+j6.37583370415e-001
  -3.34359932561e-001+j6.50715390425e-001
  -2.88190243668e-001+j6.61289199649e-001
  -2.40154983274e-001+j6.69014202138e-001
  -1.90422359057e-001+j6.73595719326e-001
  -1.39206644550e-001+j6.74741046094e-001
  -8.67712678127e-002+j6.72166762244e-001
  -3.34307536456e-002+j6.65607244203e-001
  +2.04488607406e-002+j6.54824222018e-001
  +7.44515113494e-002+j6.39617109359e-001
  +1.28114826846e-001+j6.19833706916e-001
  +1.80936327976e-001+j5.95380754368e-001
  +2.32382219552e-001+j5.66233698980e-001
  +2.81898709949e-001+j5.32444978411e-001
  +3.28925582109e-001+j4.94150100078e-001
  +3.72911514906e-001+j4.51570854445e-001
  +4.13330440339e-001+j4.05015132682e-001
  +4.49698050207e-001+j3.54873027368e-001
  +4.81587464426e-001+j3.01609162832e-001
  +5.08643064036e-001+j2.45751502209e-001
  +5.30591585373e-001+j1.87877175556e-001
  +5.47249762722e-001+j1.28596128975e-001
  +5.58528074651e-001+j6.85335744926e-002
  +5.64430461023e-001+j8.31230094446e-003
  +5.65050194129e-001-j5.14641209648e-002
  +5.60562369447e-001-j1.10226332810e-001
  +5.51213697983e-001-j1.67451679179e-001
  +5.37310413706e-001-j2.22673742512e-001
  +5.19205151243e-001-j2.75488731749e-001
  +4.97283608662e-001-j3.25558777862e-001
