<Qucs Dataset 0.0.17>
<indep y 1>
  +1.00000000000e+000
</indep>
<indep frequency 100>
  +1.06900000000e+007
  +1.06902020202e+007
  +1.06904040404e+007
  +1.06906060606e+007
  +1.06908080808e+007
  +1.06910101010e+007
  +1.06912121212e+007
  +1.06914141414e+007
  +1.06916161616e+007
  +1.06918181818e+007
  +1.06920202020e+007
  +1.06922222222e+007
  +1.06924242424e+007
  +1.06926262626e+007
  +1.06928282828e+007
  +1.06930303030e+007
  +1.06932323232e+007
  +1.06934343434e+007
  +1.06936363636e+007
  +1.06938383838e+007
  +1.06940404040e+007
  +1.06942424242e+007
  +1.06944444444e+007
  +1.06946464646e+007
  +1.06948484848e+007
  +1.06950505051e+007
  +1.06952525253e+007
  +1.06954545455e+007
  +1.06956565657e+007
  +1.06958585859e+007
  +1.06960606061e+007
  +1.06962626263e+007
  +1.06964646465e+007
  +1.06966666667e+007
  +1.06968686869e+007
  +1.06970707071e+007
  +1.06972727273e+007
  +1.06974747475e+007
  +1.06976767677e+007
  +1.06978787879e+007
  +1.06980808081e+007
  +1.06982828283e+007
  +1.06984848485e+007
  +1.06986868687e+007
  +1.06988888889e+007
  +1.06990909091e+007
  +1.06992929293e+007
  +1.06994949495e+007
  +1.06996969697e+007
  +1.06998989899e+007
  +1.07001010101e+007
  +1.07003030303e+007
  +1.07005050505e+007
  +1.07007070707e+007
  +1.07009090909e+007
  +1.07011111111e+007
  +1.07013131313e+007
  +1.07015151515e+007
  +1.07017171717e+007
  +1.07019191919e+007
  +1.07021212121e+007
  +1.07023232323e+007
  +1.07025252525e+007
  +1.07027272727e+007
  +1.07029292929e+007
  +1.07031313131e+007
  +1.07033333333e+007
  +1.07035353535e+007
  +1.07037373737e+007
  +1.07039393939e+007
  +1.07041414141e+007
  +1.07043434343e+007
  +1.07045454545e+007
  +1.07047474747e+007
  +1.07049494949e+007
  +1.07051515152e+007
  +1.07053535354e+007
  +1.07055555556e+007
  +1.07057575758e+007
  +1.07059595960e+007
  +1.07061616162e+007
  +1.07063636364e+007
  +1.07065656566e+007
  +1.07067676768e+007
  +1.07069696970e+007
  +1.07071717172e+007
  +1.07073737374e+007
  +1.07075757576e+007
  +1.07077777778e+007
  +1.07079797980e+007
  +1.07081818182e+007
  +1.07083838384e+007
  +1.07085858586e+007
  +1.07087878788e+007
  +1.07089898990e+007
  +1.07091919192e+007
  +1.07093939394e+007
  +1.07095959596e+007
  +1.07097979798e+007
  +1.07100000000e+007
</indep>
<dep dbs21 frequency>
  -6.31199693566e+001
  -6.18268243185e+001
  -6.66720192297e+001
  -7.06231986802e+001
  -5.83884108155e+001
  -6.29367406993e+001
  -9.42207698552e+001
  -6.98815765814e+001
  -6.48009111341e+001
  -5.91964123441e+001
  -6.54022803987e+001
  -6.24001391009e+001
  -5.74418542503e+001
  -6.00011272877e+001
  -5.67669043786e+001
  -5.27602998926e+001
  -4.88425253496e+001
  -4.59269836703e+001
  -4.21935541879e+001
  -3.83222294808e+001
  -3.39556803306e+001
  -2.96352546767e+001
  -2.51260533568e+001
  -2.03072612427e+001
  -1.60073448036e+001
  -1.27218975269e+001
  -1.05031551445e+001
  -8.93176620323e+000
  -6.49480190848e+000
  -5.71065808673e+000
  -2.91946997366e+000
  -2.00317096164e+000
  +1.66035650369e+000
  -3.47844587262e-001
  -1.85476330288e+000
  -2.96872316471e+000
  -2.85491667099e+000
  -2.71507783240e+000
  -1.76054761832e+000
  -3.31844153696e-001
  +1.86135130357e+000
  +1.25703859807e+000
  -1.90121970468e+000
  -2.29168042193e+000
  -3.59343817564e+000
  -2.70951729783e+000
  -3.49607090640e+000
  -1.60971463769e+000
  -1.38751241547e+000
  +1.53080521852e+000
  +8.88973633731e-001
  -2.29388376457e+000
  -4.48601090323e+000
  -4.86751151385e+000
  -5.94730152118e+000
  -5.68958485180e+000
  -5.09206700562e+000
  -4.61786189110e+000
  -1.83072347959e+000
  -4.47447962707e-001
  -4.89351263786e-001
  -3.96342788583e+000
  -4.50464144271e+000
  -5.99434010419e+000
  -4.61901036797e+000
  -4.20210962933e+000
  -1.20664661621e+000
  -4.42519917312e+000
  -6.95606738081e+000
  -9.01488835284e+000
  -7.78926790344e+000
  -1.14302462986e+001
  -2.00503931365e+001
  -2.73116631189e+001
  -3.30258113541e+001
  -3.74625718848e+001
  -4.24758107475e+001
  -4.59693701854e+001
  -4.91822968461e+001
  -5.12950817081e+001
  -5.35716158617e+001
  -5.67602981201e+001
  -5.54341299066e+001
  -6.26678751618e+001
  -7.23567981519e+001
  -9.69939745589e+001
  -6.39673146850e+001
  -5.92440547779e+001
  -6.33196698247e+001
  -6.58377719637e+001
  -6.84490919010e+001
  -6.78043986991e+001
  -7.64247513038e+001
  -6.61269459210e+001
  -6.60135899446e+001
  -6.16928643704e+001
  -6.22058531304e+001
  -6.39973876488e+001
  -5.98793172870e+001
  -6.83112025997e+001
</dep>
<dep dbs22 frequency>
  +2.69414407252e+000
  +2.40788050018e+000
  +3.15933352744e+000
  +2.27620185430e+000
  +3.10235101501e+000
  +2.34365279978e+000
  +3.02413800352e+000
  +2.20315293698e+000
  +2.41583873090e+000
  +2.35968971894e+000
  +2.18699204363e+000
  +2.37927148831e+000
  +2.10229359129e+000
  +2.30124376756e+000
  +1.97985564913e+000
  +2.19011733218e+000
  +1.86897934741e+000
  +2.07256072410e+000
  +1.88405034631e+000
  +2.08842584463e+000
  +1.38882013130e+000
  +1.40220646696e+000
  +5.52807296480e-001
  -3.69750555765e-001
  -2.37430978831e+000
  -2.56758815076e+000
  -2.21591570839e+000
  -2.08827725093e+000
  -9.17743705029e-001
  -1.08860206955e+000
  -6.62341662468e-001
  -2.95399402774e+000
  -2.64582053862e+000
  -6.19594899291e+000
  -3.90890720658e+000
  -3.18290105481e+000
  -9.81393702271e-001
  -1.97756946516e+000
  -1.03665195789e+000
  -3.31576880052e+000
  -2.26471800630e+000
  -2.81110874099e+000
  -4.94744604826e+000
  -2.37112844590e+000
  -1.78148192212e+000
  -4.90234879686e-001
  -1.16288554923e+000
  -7.18227795278e-001
  -2.85814311438e+000
  -1.52792982070e+000
  -1.40822724215e+000
  -2.35662582729e+000
  -2.06108130717e+000
  +3.60428784500e-001
  -3.50927421264e-001
  +9.84626869257e-001
  +1.32555176954e-001
  -1.14179632429e-001
  -1.07978242141e+000
  -2.18615793743e+000
  -1.65712412081e+000
  -2.48153123263e+000
  +7.17843801604e-002
  -4.43304814831e-001
  +9.96504171791e-001
  -1.50294265057e+000
  -1.72771683368e+000
  -2.88442799176e+000
  +4.32419247760e-001
  -5.02235938351e-001
  +7.25970777246e-003
  -1.34940981954e+000
  +1.02705585770e+000
  +7.16224444101e-001
  +1.59652144036e+000
  +1.21856493198e+000
  +1.27604487677e+000
  +1.72375956681e+000
  +1.28940044966e+000
  +1.96352400376e+000
  +1.24169030049e+000
  +2.69815078434e+000
  +1.28578819972e+000
  +2.92085954078e+000
  +1.43053003024e+000
  +2.86310043745e+000
  +1.51981275758e+000
  +2.75023654253e+000
  +1.63753493005e+000
  +2.47680670551e+000
  +1.84725653143e+000
  +1.95218896475e+000
  +2.02394297818e+000
  +2.14256826460e+000
  +2.07834411645e+000
  +1.82154129793e+000
  +2.21263168483e+000
  +1.75341585614e+000
  +2.54034713054e+000
  +1.49906174643e+000
</dep>
<dep dbs12 frequency>
  -6.08624398566e+001
  -6.30548409113e+001
  -6.22701959815e+001
  -6.31360068161e+001
  -6.08767010121e+001
  -6.59358221775e+001
  -6.53763345207e+001
  -6.88659681662e+001
  -7.12465273608e+001
  -6.74171849905e+001
  -6.11993501824e+001
  -6.49463871010e+001
  -6.26813543503e+001
  -5.79770179996e+001
  -5.59291208938e+001
  -5.35387225071e+001
  -4.84549550230e+001
  -4.60778773667e+001
  -4.19585665427e+001
  -3.81259506434e+001
  -3.39756802524e+001
  -2.96443961611e+001
  -2.51059054729e+001
  -2.02813941595e+001
  -1.59238145440e+001
  -1.27808363096e+001
  -1.05440474592e+001
  -8.96847125184e+000
  -6.52096634030e+000
  -5.73030285292e+000
  -2.94148879958e+000
  -2.03073124454e+000
  +1.61146478719e+000
  -3.21153259460e-001
  -1.84313330242e+000
  -2.96001383246e+000
  -2.85690256709e+000
  -2.72056413837e+000
  -1.76892303320e+000
  -3.46200651183e-001
  +1.82763098041e+000
  +1.29716647062e+000
  -1.88281429620e+000
  -2.28455780230e+000
  -3.57819509780e+000
  -2.70580217966e+000
  -3.49301182989e+000
  -1.60595698383e+000
  -1.39114901847e+000
  +1.51797677496e+000
  +9.17599361198e-001
  -2.28498060043e+000
  -4.48333733156e+000
  -4.85017968335e+000
  -5.95708099342e+000
  -5.68649457246e+000
  -5.08766262922e+000
  -4.61993247850e+000
  -1.83094267653e+000
  -4.43429471781e-001
  -4.78568047654e-001
  -3.95864497932e+000
  -4.49733399444e+000
  -6.01397681104e+000
  -4.62571596328e+000
  -4.21536834383e+000
  -1.21207855173e+000
  -4.41286840199e+000
  -6.95503037172e+000
  -9.03542719550e+000
  -7.82133710417e+000
  -1.13583671100e+001
  -1.99664916596e+001
  -2.72560375783e+001
  -3.25836092342e+001
  -3.76755129445e+001
  -4.26941868679e+001
  -4.54499897743e+001
  -5.03989999024e+001
  -5.16227800928e+001
  -5.37693495721e+001
  -5.72640027606e+001
  -6.24584207820e+001
  -6.11323477133e+001
  -6.54923214894e+001
  -6.36690654207e+001
  -6.46970267081e+001
  -6.15748005566e+001
  -6.65673309536e+001
  -6.62978901808e+001
  -6.76421256273e+001
  -5.97456768349e+001
  -7.83643320171e+001
  -6.65875759925e+001
  -6.44861925759e+001
  -6.34066480468e+001
  -6.88796643844e+001
  -6.75891831102e+001
  -5.98406034685e+001
  -6.68006503997e+001
</dep>
<dep dbs11 frequency>
  +2.20195609494e+000
  +2.30578868886e+000
  +1.95200177734e+000
  +2.46923035163e+000
  +1.80522840722e+000
  +2.58458827000e+000
  +1.57040707953e+000
  +2.49754768703e+000
  +1.28064130898e+000
  +2.93914967588e+000
  +1.30635890761e+000
  +2.68181453629e+000
  +1.32292436716e+000
  +2.30923629718e+000
  +1.35300709781e+000
  +2.01286366211e+000
  +1.53689983030e+000
  +1.56480460644e+000
  +1.63416429591e+000
  +1.27944714356e+000
  +1.21295065798e+000
  +7.24958611807e-001
  +1.78695870853e-001
  -1.06251500471e+000
  -2.58911846207e+000
  -2.01370734322e+000
  -2.04492529601e+000
  -2.46448113946e+000
  -8.27204063225e-001
  -1.85380034579e+000
  -9.29597635010e-001
  -3.72899114213e+000
  -2.77613861866e+000
  -5.13668922497e+000
  -4.71173537158e+000
  -2.36456583221e+000
  -2.38151823617e+000
  -1.33205395977e+000
  -2.69260655150e+000
  -3.10620446119e+000
  -4.23330003509e+000
  -4.24521394108e+000
  -5.99985642067e+000
  -2.25965623326e+000
  -2.29161247294e+000
  -3.10114303872e-001
  -1.68130743217e+000
  -1.11465119498e+000
  -3.62980175015e+000
  -5.42701427878e+000
  -5.05349974663e+000
  -4.85898801966e+000
  -2.21095246002e+000
  -1.28732888486e+000
  -9.36764745245e-002
  -4.40443302634e-001
  +6.62324209188e-001
  -1.14191747965e+000
  -5.87930702732e-001
  -4.73407607406e+000
  -4.34387456313e+000
  -3.65991215316e+000
  -7.76454217775e-001
  -1.06329361210e+000
  -3.64562764066e-001
  -1.75433469239e+000
  -2.99197666078e+000
  -2.60770789784e+000
  -9.69807603961e-001
  +3.37028455170e-002
  -5.50811892753e-001
  -1.53931059557e-001
  +3.99859515886e-001
  +1.21980300360e+000
  +9.37246171764e-001
  +1.67738361193e+000
  +8.87664657379e-001
  +1.78993946404e+000
  +8.95904184613e-001
  +1.63172424030e+000
  +9.82689159992e-001
  +1.70350202068e+000
  +1.23115973124e+000
  +1.54887593645e+000
  +1.48056174006e+000
  +1.63536231882e+000
  +1.75133643161e+000
  +1.64592653283e+000
  +2.04627129358e+000
  +1.61091459941e+000
  +2.35346123645e+000
  +1.48847139756e+000
  +2.31593036666e+000
  +1.60264018371e+000
  +2.22720509497e+000
  +1.40876290851e+000
  +1.90833837211e+000
  +1.67114060646e+000
  +1.66094637238e+000
  +1.64818740651e+000
</dep>
<dep S[1,1] frequency>
  +9.44139232272e-001-j8.76889774308e-001
  +9.41091644595e-001-j9.02693335752e-001
  +8.93067802250e-001-j8.77441333577e-001
  +9.44141471452e-001-j9.35051739991e-001
  +8.35149799206e-001-j9.04383388094e-001
  +9.03530582406e-001-j9.98442411943e-001
  +7.64509617588e-001-j9.22577388495e-001
  +8.57522161226e-001-j1.02075036258e+000
  +7.09354848446e-001-j9.16394542017e-001
  +8.37674683743e-001-j1.12507873084e+000
  +6.45350928840e-001-j9.66675565735e-001
  +7.25124068046e-001-j1.15260630733e+000
  +5.80987357342e-001-j1.00923532497e+000
  +5.93357463827e-001-j1.16180296601e+000
  +4.83490584197e-001-j1.06384452322e+000
  +4.12862038963e-001-j1.19127641244e+000
  +3.40423757805e-001-j1.14398512468e+000
  +2.09183044588e-001-j1.17898925420e+000
  +1.14872277550e-001-j1.20152390650e+000
  -5.48572106911e-002-j1.15740430473e+000
  -2.02918505232e-001-j1.13182053628e+000
  -4.09974453929e-001-j1.00677206871e+000
  -6.05659397137e-001-j8.21694089575e-001
  -7.30929857851e-001-j4.98715983234e-001
  -7.42202906599e-001-j7.37272144298e-003
  -6.27757937957e-001+j4.84653491911e-001
  -2.24201659300e-001+j7.57758343870e-001
  +2.12961378716e-001+j7.22223479572e-001
  +6.62519373401e-001+j6.22605809623e-001
  +7.59345212152e-001+j2.75597753472e-001
  +8.98428598952e-001-j1.16565423935e-002
  +6.26002223772e-001-j1.78500993759e-001
  +7.25814188693e-001-j2.98764427335e-002
  +4.55695825997e-001+j3.14278810063e-001
  +5.18945246817e-001+j2.61964899697e-001
  +7.19871870521e-001+j2.48874784078e-001
  +7.60193046662e-001+j7.20962674232e-004
  +8.50954904381e-001-j1.08327039460e-001
  +6.66157261085e-001-j3.06889758436e-001
  +6.22156067632e-001-j3.19376633065e-001
  +5.97058009809e-001-j1.44246769049e-001
  +4.87010350853e-001+j3.72924570320e-001
  +3.82727602107e-001+j3.23599336003e-001
  +6.68721230062e-001+j3.83602813163e-001
  +7.39173101688e-001+j2.08818374232e-001
  +9.61470203858e-001+j8.15991216082e-002
  +8.17026075385e-001-j1.07086801509e-001
  +8.41859281687e-001-j2.54766090145e-001
  +5.72130385795e-001-j3.25879563188e-001
  +5.19120192813e-001-j1.30877801112e-001
  +3.50761036335e-001+j4.35112421775e-001
  +3.24586083930e-001+j4.70433646440e-001
  +5.45566736202e-001+j5.50816524499e-001
  +7.63448885382e-001+j4.00776832607e-001
  +9.12899078954e-001+j3.81151454039e-001
  +9.39159613182e-001+j1.46753058222e-001
  +1.07669564118e+000+j7.39979494093e-002
  +8.61527147174e-001-j1.62978239416e-001
  +8.97695015289e-001-j2.59867417303e-001
  +5.56349693466e-001-j1.63312286558e-001
  +4.27499034889e-001+j4.30168883802e-001
  +4.55884598515e-001+j4.71915831358e-001
  +7.60147350361e-001+j5.08391116887e-001
  +8.25557932756e-001+j3.18260629922e-001
  +9.36837786056e-001+j2.04494508062e-001
  +8.15712846190e-001+j4.78511126921e-002
  +6.73485876592e-001+j2.20297021953e-001
  +4.94148479589e-001+j5.51709786802e-001
  +7.10272186802e-001+j5.43491591255e-001
  +8.63374571349e-001+j5.12225444710e-001
  +8.68656856354e-001+j3.55414471343e-001
  +7.87844406215e-001+j5.86922512505e-001
  +9.20259712490e-001+j4.99564600205e-001
  +1.02320163348e+000+j5.26630688002e-001
  +1.05171648725e+000+j3.67093537574e-001
  +1.12720446650e+000+j4.48147154447e-001
  +1.06763190516e+000+j2.94858423133e-001
  +1.17887480215e+000+j3.46862085376e-001
  +1.08993870102e+000+j2.02836593829e-001
  +1.16802547193e+000+j3.02908468084e-001
  +1.10622265005e+000+j1.73749276926e-001
  +1.19114597800e+000+j2.47937163387e-001
  +1.13782870254e+000+j1.81919799613e-001
  +1.18255904248e+000+j1.73430918956e-001
  +1.17253604817e+000+j1.77168330827e-001
  +1.19817501534e+000+j1.47084692831e-001
  +1.21207843954e+000+j1.66018107729e-001
  +1.20186497421e+000+j1.27776959613e-001
  +1.25697862552e+000+j1.47899370616e-001
  +1.20080995467e+000+j8.44537833477e-002
  +1.30304859872e+000+j1.46090449418e-001
  +1.18529924889e+000+j6.21171768892e-002
  +1.30072499213e+000+j1.12244901737e-001
  +1.20195790569e+000+j4.01988739832e-002
  +1.28571175182e+000+j1.30233713170e-001
  +1.17572604740e+000+j2.89928702187e-002
  +1.24471551994e+000+j4.97639283668e-002
  +1.21206054690e+000+j1.48778169599e-002
  +1.21061550020e+000+j1.66536603066e-002
  +1.20889070162e+000-j1.22601645892e-002
</dep>
<dep S[1,2] frequency>
  -3.88577377324e-005+j9.04644061683e-004
  +1.82876775488e-004+j6.79304294449e-004
  -7.47117789783e-004+j1.86315798525e-004
  -4.51160776692e-004+j5.31214518361e-004
  -5.85386132940e-005+j9.02095410748e-004
  -7.64042177907e-006-j5.04846280430e-004
  +3.34709600679e-004+j4.21839404594e-004
  +3.58964403175e-004+j3.13522842294e-005
  +8.13050867583e-005+j2.61608275243e-004
  +1.06840558657e-005+j4.25602285819e-004
  +2.09193810795e-004+j8.45534763327e-004
  +5.45723134872e-004+j1.49472399038e-004
  +7.34296972996e-004-j1.22620323375e-005
  +9.55107305594e-004+j8.25271105211e-004
  +1.50741674599e-003+j5.30012104559e-004
  +1.90472820079e-003+j8.93977788252e-004
  +3.73582159398e-003+j5.62390550338e-004
  +4.96713501548e-003-j4.35100619532e-006
  +7.83432949028e-003-j1.52441970497e-003
  +1.14354925598e-002-j4.81543956273e-003
  +1.70242452912e-002-j1.05127459989e-002
  +2.24371158696e-002-j2.41226506288e-002
  +2.46273731937e-002-j4.97954680590e-002
  +9.61836714300e-003-j9.63332644082e-002
  -2.07928174056e-002-j1.58527772398e-001
  -1.01820133965e-001-j2.05780209715e-001
  -2.69630813738e-001-j1.24599169251e-001
  -3.47085015501e-001+j7.96354740236e-002
  -3.53569311121e-001+j3.12702219683e-001
  -1.64709220837e-001+j4.90053950113e-001
  +1.05560008206e-001+j7.04870453040e-001
  +4.96138682625e-001+j6.16729093584e-001
  +1.13086256702e+000+j4.12807984200e-001
  +9.62563089278e-001-j4.68191595928e-002
  +6.39004359202e-001-j4.95820000867e-001
  +3.55600729082e-001-j6.15931142588e-001
  +9.89422467169e-002-j7.12872048798e-001
  -9.47151172500e-002-j7.24930322039e-001
  -4.03010761060e-001-j7.09239365855e-001
  -7.07566826337e-001-j6.50175408588e-001
  -1.17449280822e+000-j3.79194241898e-001
  -1.15080003673e+000-j1.54085437396e-001
  -7.13438674969e-001+j3.73121295965e-001
  -5.41218699033e-001+j5.45915242347e-001
  -2.72782318835e-001+j6.03575010209e-001
  -1.52656018980e-001+j7.16247820349e-001
  +5.10575991688e-002+j6.66930314535e-001
  +2.62726878535e-001+j7.88579267666e-001
  +5.35220054165e-001+j6.62912791915e-001
  +1.04778181641e+000+j5.66171221396e-001
  +1.07232527061e+000+j2.92203601391e-001
  +7.23517525227e-001-j2.59626646718e-001
  +4.51658096326e-001-j3.90105483368e-001
  +3.06760877392e-001-j4.82933655890e-001
  +1.93272645818e-001-j4.65111811629e-001
  +7.35051120625e-002-j5.14381938743e-001
  -9.80102855087e-003-j5.56608136469e-001
  -1.94673452592e-001-j5.54302581918e-001
  -4.78780680368e-001-j6.53277827144e-001
  -8.61837241611e-001-j4.00215871687e-001
  -9.40340679508e-001-j1.06861778263e-001
  -5.40596112416e-001+j3.31167683216e-001
  -3.91955365981e-001+j4.48778627655e-001
  -1.66466843062e-001+j4.71879579378e-001
  -5.63274468773e-002+j5.84394555262e-001
  +2.06654620209e-001+j5.79776050505e-001
  +6.67085815398e-001+j5.58092531006e-001
  +6.01369305610e-001-j1.89415841148e-002
  +3.63689468268e-001-j2.63311522446e-001
  +1.67238116441e-001-j3.11289533072e-001
  -5.14475349516e-002-j4.03110999928e-001
  -2.56172770053e-001-j8.67001457133e-002
  -9.26086333186e-002+j3.87439705995e-002
  -3.47321772617e-002+j2.59751441853e-002
  -1.59382438342e-002+j1.72508320263e-002
  -8.49214225154e-003+j9.93318274540e-003
  -4.53109498464e-003+j5.76578606571e-003
  -3.05895545710e-003+j4.37641877744e-003
  -1.65906353937e-003+j2.52382982692e-003
  -1.87900025159e-003+j1.83070316810e-003
  -1.47967444646e-003+j1.41731509486e-003
  -9.26564851672e-004+j1.00948654330e-003
  -7.20794367011e-005+j7.50037047794e-004
  -5.84414355457e-004+j6.54940231680e-004
  -4.31815859440e-004+j3.09632200341e-004
  -4.84758766778e-004+j4.41177751888e-004
  -5.82232374440e-004-j9.03765234095e-006
  -5.64138147384e-004-j6.14495777727e-004
  +3.95240842110e-004-j2.53402348132e-004
  -3.45653599731e-004-j3.39205515469e-004
  -4.13774200439e-004+j2.98916942452e-005
  -9.78834825057e-004+j3.19673372101e-004
  -6.50081678766e-005-j1.01722841738e-004
  -1.91930005232e-004+j4.27277183845e-004
  -4.95770533514e-004+j3.31895785499e-004
  -3.30119788302e-004-j5.89414924871e-004
  -3.44706616140e-004-j1.02989973548e-004
  -1.89045660501e-004-j3.72122548801e-004
  -8.64533630956e-004-j5.38484780018e-004
  +3.88518223159e-004+j2.40732042712e-004
</dep>
<dep S[2,1] frequency>
  -5.15504320481e-004-j4.70942911229e-004
  -3.59401397862e-004+j7.26261570348e-004
  -2.92155644990e-004+j3.60309843558e-004
  -2.02788954999e-004+j2.13328378446e-004
  -8.91006560231e-004+j8.09573591153e-004
  -2.00537540967e-004+j6.84343221444e-004
  +1.67907032666e-005+j9.82078355231e-006
