<Qucs Dataset 0.0.17>
<indep frequency 200>
  +1.00000000000e+006
  +1.49748743719e+006
  +1.99497487437e+006
  +2.49246231156e+006
  +2.98994974874e+006
  +3.48743718593e+006
  +3.98492462312e+006
  +4.48241206030e+006
  +4.97989949749e+006
  +5.47738693467e+006
  +5.97487437186e+006
  +6.47236180905e+006
  +6.96984924623e+006
  +7.46733668342e+006
  +7.96482412060e+006
  +8.46231155779e+006
  +8.95979899497e+006
  +9.45728643216e+006
  +9.95477386935e+006
  +1.04522613065e+007
  +1.09497487437e+007
  +1.14472361809e+007
  +1.19447236181e+007
  +1.24422110553e+007
  +1.29396984925e+007
  +1.34371859296e+007
  +1.39346733668e+007
  +1.44321608040e+007
  +1.49296482412e+007
  +1.54271356784e+007
  +1.59246231156e+007
  +1.64221105528e+007
  +1.69195979899e+007
  +1.74170854271e+007
  +1.79145728643e+007
  +1.84120603015e+007
  +1.89095477387e+007
  +1.94070351759e+007
  +1.99045226131e+007
  +2.04020100503e+007
  +2.08994974874e+007
  +2.13969849246e+007
  +2.18944723618e+007
  +2.23919597990e+007
  +2.28894472362e+007
  +2.33869346734e+007
  +2.38844221106e+007
  +2.43819095477e+007
  +2.48793969849e+007
  +2.53768844221e+007
  +2.58743718593e+007
  +2.63718592965e+007
  +2.68693467337e+007
  +2.73668341709e+007
  +2.78643216080e+007
  +2.83618090452e+007
  +2.88592964824e+007
  +2.93567839196e+007
  +2.98542713568e+007
  +3.03517587940e+007
  +3.08492462312e+007
  +3.13467336683e+007
  +3.18442211055e+007
  +3.23417085427e+007
  +3.28391959799e+007
  +3.33366834171e+007
  +3.38341708543e+007
  +3.43316582915e+007
  +3.48291457286e+007
  +3.53266331658e+007
  +3.58241206030e+007
  +3.63216080402e+007
  +3.68190954774e+007
  +3.73165829146e+007
  +3.78140703518e+007
  +3.83115577889e+007
  +3.88090452261e+007
  +3.93065326633e+007
  +3.98040201005e+007
  +4.03015075377e+007
  +4.07989949749e+007
  +4.12964824121e+007
  +4.17939698492e+007
  +4.22914572864e+007
  +4.27889447236e+007
  +4.32864321608e+007
  +4.37839195980e+007
  +4.42814070352e+007
  +4.47788944724e+007
  +4.52763819095e+007
  +4.57738693467e+007
  +4.62713567839e+007
  +4.67688442211e+007
  +4.72663316583e+007
  +4.77638190955e+007
  +4.82613065327e+007
  +4.87587939698e+007
  +4.92562814070e+007
  +4.97537688442e+007
  +5.02512562814e+007
  +5.07487437186e+007
  +5.12462311558e+007
  +5.17437185930e+007
  +5.22412060302e+007
  +5.27386934673e+007
  +5.32361809045e+007
  +5.37336683417e+007
  +5.42311557789e+007
  +5.47286432161e+007
  +5.52261306533e+007
  +5.57236180905e+007
  +5.62211055276e+007
  +5.67185929648e+007
  +5.72160804020e+007
  +5.77135678392e+007
  +5.82110552764e+007
  +5.87085427136e+007
  +5.92060301508e+007
  +5.97035175879e+007
  +6.02010050251e+007
  +6.06984924623e+007
  +6.11959798995e+007
  +6.16934673367e+007
  +6.21909547739e+007
  +6.26884422111e+007
  +6.31859296482e+007
  +6.36834170854e+007
  +6.41809045226e+007
  +6.46783919598e+007
  +6.51758793970e+007
  +6.56733668342e+007
  +6.61708542714e+007
  +6.66683417085e+007
  +6.71658291457e+007
  +6.76633165829e+007
  +6.81608040201e+007
  +6.86582914573e+007
  +6.91557788945e+007
  +6.96532663317e+007
  +7.01507537688e+007
  +7.06482412060e+007
  +7.11457286432e+007
  +7.16432160804e+007
  +7.21407035176e+007
  +7.26381909548e+007
  +7.31356783920e+007
  +7.36331658291e+007
  +7.41306532663e+007
  +7.46281407035e+007
  +7.51256281407e+007
  +7.56231155779e+007
  +7.61206030151e+007
  +7.66180904523e+007
  +7.71155778894e+007
  +7.76130653266e+007
  +7.81105527638e+007
  +7.86080402010e+007
  +7.91055276382e+007
  +7.96030150754e+007
  +8.01005025126e+007
  +8.05979899497e+007
  +8.10954773869e+007
  +8.15929648241e+007
  +8.20904522613e+007
  +8.25879396985e+007
  +8.30854271357e+007
  +8.35829145729e+007
  +8.40804020101e+007
  +8.45778894472e+007
  +8.50753768844e+007
  +8.55728643216e+007
  +8.60703517588e+007
  +8.65678391960e+007
  +8.70653266332e+007
  +8.75628140704e+007
  +8.80603015075e+007
  +8.85577889447e+007
  +8.90552763819e+007
  +8.95527638191e+007
  +9.00502512563e+007
  +9.05477386935e+007
  +9.10452261307e+007
  +9.15427135678e+007
  +9.20402010050e+007
  +9.25376884422e+007
  +9.30351758794e+007
  +9.35326633166e+007
  +9.40301507538e+007
  +9.45276381910e+007
  +9.50251256281e+007
  +9.55226130653e+007
  +9.60201005025e+007
  +9.65175879397e+007
  +9.70150753769e+007
  +9.75125628141e+007
  +9.80100502513e+007
  +9.85075376884e+007
  +9.90050251256e+007
  +9.95025125628e+007
  +1.00000000000e+008
</indep>
<dep dbs11 frequency>
  -2.11871757968e+001
  -2.11052703740e+001
  -2.10456090908e+001
  -2.09740366146e+001
  -2.08796088346e+001
  -2.07660395311e+001
  -2.06375358666e+001
  -2.04968438679e+001
  -2.03392585202e+001
  -2.01719822536e+001
  -1.99980682734e+001
  -1.98135116269e+001
  -1.96258400125e+001
  -1.94340676811e+001
  -1.92365202540e+001
  -1.90379696990e+001
  -1.88404315860e+001
  -1.86363493825e+001
  -1.84354029932e+001
  -1.82346466034e+001
  -1.80357136079e+001
  -1.78385669119e+001
  -1.76432402136e+001
  -1.74495208500e+001
  -1.72589192203e+001
  -1.70716936353e+001
  -1.68854918345e+001
  -1.67026508555e+001
  -1.65240511349e+001
  -1.63455633375e+001
  -1.61752411702e+001
  -1.60033145321e+001
  -1.58358323284e+001
  -1.56761887989e+001
  -1.55169606560e+001
  -1.53598357996e+001
  -1.52088184784e+001
  -1.50588633981e+001
  -1.49120320292e+001
  -1.47692068645e+001
  -1.46293728413e+001
  -1.44929165070e+001
  -1.43593770957e+001
  -1.42307925530e+001
  -1.41014002949e+001
  -1.39760940482e+001
  -1.38533403915e+001
  -1.37351866985e+001
  -1.36184204914e+001
  -1.35049689404e+001
  -1.33925071570e+001
  -1.32851751413e+001
  -1.31828412394e+001
  -1.30792154270e+001
  -1.29767947240e+001
  -1.28765397902e+001
  -1.27826677134e+001
  -1.26869684358e+001
  -1.25974282009e+001
  -1.25064201453e+001
  -1.24195261221e+001
  -1.23351771155e+001
  -1.22518927420e+001
  -1.21697233581e+001
  -1.20906097947e+001
  -1.20126728813e+001
  -1.19400143022e+001
  -1.18563876758e+001
  -1.17897263333e+001
  -1.17226017497e+001
  -1.16541218333e+001
  -1.15867413140e+001
  -1.15216816481e+001
  -1.14589950754e+001
  -1.14043670667e+001
  -1.13391541743e+001
  -1.12793064706e+001
  -1.12192365506e+001
  -1.11620695119e+001
  -1.11095018681e+001
  -1.10580977950e+001
  -1.10053401014e+001
  -1.09577821309e+001
  -1.09112311076e+001
  -1.08619849131e+001
  -1.08159190363e+001
  -1.07709577655e+001
  -1.07232696974e+001
  -1.06829537249e+001
  -1.06375335439e+001
  -1.05961294469e+001
  -1.05573052434e+001
  -1.05157567694e+001
  -1.04780630039e+001
  -1.04407806355e+001
  -1.04066950408e+001
  -1.03687472863e+001
  -1.03360429135e+001
  -1.03046591592e+001
  -1.02704921190e+001
  -1.02385538734e+001
  -1.02078415219e+001
  -1.01776962084e+001
  -1.01503141203e+001
  -1.01210095392e+001
  -1.00918971301e+001
  -1.00694268440e+001
  -1.00429848239e+001
  -1.00161768865e+001
  -9.99351766925e+000
  -9.97009282455e+000
  -9.94844300224e+000
  -9.92320848567e+000
  -9.90237345647e+000
  -9.87999347583e+000
  -9.86156105731e+000
  -9.84238653343e+000
  -9.82258588770e+000
  -9.80198799023e+000
  -9.78656598419e+000
  -9.76866739503e+000
  -9.75421402131e+000
  -9.73786238165e+000
  -9.71966159611e+000
  -9.70621034455e+000
  -9.69068518108e+000
  -9.67365153151e+000
  -9.65997384953e+000
  -9.64921737057e+000
  -9.64111567017e+000
  -9.62620574923e+000
  -9.61523968569e+000
  -9.60497643802e+000
  -9.59656035274e+000
  -9.58148309191e+000
  -9.57223069536e+000
  -9.56230027823e+000
  -9.55318225005e+000
  -9.54249412242e+000
  -9.51914807736e+000
  -9.51945785488e+000
  -9.51945354534e+000
  -9.51165928804e+000
  -9.50543749332e+000
  -9.50284267939e+000
  -9.49680158027e+000
  -9.49918007199e+000
  -9.48692165744e+000
  -9.47099156959e+000
  -9.46629911071e+000
  -9.46630397631e+000
  -9.45896008927e+000
  -9.45434515385e+000
  -9.45143120695e+000
  -9.44506300044e+000
  -9.44475147433e+000
  -9.44323190156e+000
  -9.43871341727e+000
  -9.43912386149e+000
  -9.43758381488e+000
  -9.44004540633e+000
  -9.43072105692e+000
  -9.43073693361e+000
  -9.42923101143e+000
  -9.43255610192e+000
  -9.43090811572e+000
  -9.43231178725e+000
  -9.43388969351e+000
  -9.43073523685e+000
  -9.42828739727e+000
  -9.42886595039e+000
  -9.43148090946e+000
  -9.43350358154e+000
  -9.43615120081e+000
  -9.43531461708e+000
  -9.43386975027e+000
  -9.43803373834e+000
  -9.43946648859e+000
  -9.44115705182e+000
  -9.44486124322e+000
  -9.44130264010e+000
  -9.45068537131e+000
  -9.45404249015e+000
  -9.45602522750e+000
  -9.46041759073e+000
  -9.46257453025e+000
  -9.46685269330e+000
  -9.46979368807e+000
  -9.47453910433e+000
  -9.48151466762e+000
  -9.48533949007e+000
  -9.49135597174e+000
  -9.49424347361e+000
  -9.50097930691e+000
  -9.50945346558e+000
  -9.51200165982e+000
  -9.51456146573e+000
  -9.52394927538e+000
  -9.52529136889e+000
  -9.53663389079e+000
</dep>
<dep S[1,1] frequency>
  +8.70966656938e-002-j4.73070608984e-003
  +8.71909460105e-002-j1.22798892012e-002
  +8.65401552117e-002-j1.92639813180e-002
  +8.56444612821e-002-j2.56112880813e-002
  +8.46561753540e-002-j3.16210564347e-002
  +8.35463333043e-002-j3.74558966117e-002
  +8.23027257355e-002-j4.31386675455e-002
  +8.09143721956e-002-j4.87016741219e-002
  +7.94280355411e-002-j5.42194411642e-002
  +7.78209320689e-002-j5.96291641983e-002
  +7.60535218807e-002-j6.49639189379e-002
  +7.41800259830e-002-j7.02572553716e-002
  +7.21472048865e-002-j7.54620256796e-002
  +7.00001409509e-002-j8.05717280166e-002
  +6.77137126726e-002-j8.56552493550e-002
  +6.53190876003e-002-j9.06260710000e-002
  +6.27708343187e-002-j9.54999124596e-002
  +6.01249632725e-002-j1.00368216156e-001
  +5.73501119215e-002-j1.05109520927e-001
  +5.44589897500e-002-j1.09770507336e-001
  +5.14747926277e-002-j1.14321828878e-001
  +4.83605884866e-002-j1.18787195095e-001
  +4.51389022645e-002-j1.23159747523e-001
  +4.18510796594e-002-j1.27433045388e-001
  +3.83914072595e-002-j1.31620459816e-001
  +3.48826355702e-002-j1.35680320620e-001
  +3.12768945161e-002-j1.39669095546e-001
  +2.75823355647e-002-j1.43547169617e-001
  +2.37939768013e-002-j1.47300444076e-001
  +1.99004419535e-002-j1.51002003398e-001
  +1.59257868756e-002-j1.54505161330e-001
  +1.18950582326e-002-j1.57981671471e-001
  +7.77472296773e-003-j1.61326101195e-001
  +3.59268761943e-003-j1.64470105334e-001
  -7.15122182410e-004-j1.67551380934e-001
  -5.00354916143e-003-j1.70538078437e-001
  -9.40347335532e-003-j1.73348876810e-001
  -1.38131163546e-002-j1.76085937093e-001
  -1.83199187801e-002-j1.78701481415e-001
  -2.28362995848e-002-j1.81182875828e-001
  -2.73852174315e-002-j1.83548402368e-001
  -3.20693848322e-002-j1.85770858828e-001
  -3.66857705918e-002-j1.87891372488e-001
  -4.12910756476e-002-j1.89856199266e-001
  -4.60807477389e-002-j1.91751237893e-001
  -5.08246412804e-002-j1.93513093023e-001
  -5.55977576097e-002-j1.95158798976e-001
  -6.03359785332e-002-j1.96655286238e-001
  -6.51748284844e-002-j1.98038051787e-001
  -6.99788444455e-002-j1.99299380024e-001
  -7.48289352127e-002-j2.00470393055e-001
  -7.96088557558e-002-j2.01484194807e-001
  -8.43912757489e-002-j2.02313124291e-001
  -8.92467606766e-002-j2.03095689272e-001
  -9.40771283185e-002-j2.03805615689e-001
  -9.88769320751e-002-j2.04419381634e-001
  -1.03726277539e-001-j2.04771750048e-001
  -1.08560570704e-001-j2.05132073131e-001
  -1.13238028907e-001-j2.05338229436e-001
  -1.18059608165e-001-j2.05458006234e-001
  -1.22782948122e-001-j2.05451213479e-001
  -1.27486740973e-001-j2.05320406844e-001
  -1.32170243950e-001-j2.05112862783e-001
  -1.36867749891e-001-j2.04804094149e-001
  -1.41501618467e-001-j2.04377726283e-001
  -1.46090904492e-001-j2.03885592042e-001
  -1.50654062109e-001-j2.03166499308e-001
  -1.55294658399e-001-j2.02732906592e-001
  -1.59640253296e-001-j2.01843535755e-001
  -1.64075657173e-001-j2.00839587921e-001
  -1.68481336787e-001-j1.99850758058e-001
  -1.72860598131e-001-j1.98780895122e-001
  -1.77187259589e-001-j1.97602379871e-001
  -1.81411326078e-001-j1.96357068106e-001
  -1.85495249952e-001-j1.94839161613e-001
  -1.89772802832e-001-j1.93525132220e-001
  -1.93888387038e-001-j1.92073903525e-001
  -1.98054086388e-001-j1.90517916791e-001
  -2.02064402155e-001-j1.88926346351e-001
  -2.05975218565e-001-j1.87161087395e-001
  -2.09819210696e-001-j1.85346121478e-001
  -2.13652475644e-001-j1.83542453529e-001
  -2.17357432725e-001-j1.81561294300e-001
  -2.21076264304e-001-j1.79439142464e-001
  -2.24677019997e-001-j1.77532830996e-001
  -2.28211058403e-001-j1.75475826104e-001
  -2.31771726433e-001-j1.73252205571e-001
  -2.35293171151e-001-j1.71161045040e-001
  -2.38542317709e-001-j1.68955908156e-001
  -2.42012941133e-001-j1.66663179840e-001
  -2.45305438875e-001-j1.64314509247e-001
  -2.48534293759e-001-j1.61825572634e-001
  -2.51729062099e-001-j1.59482919286e-001
  -2.54815449307e-001-j1.56988873509e-001
  -2.57881111581e-001-j1.54421624803e-001
  -2.60815297561e-001-j1.51776078871e-001
  -2.63823878682e-001-j1.49186841325e-001
  -2.66589995862e-001-j1.46573817691e-001
  -2.69342970809e-001-j1.43804475897e-001
  -2.72137466753e-001-j1.41077575871e-001
  -2.74785781933e-001-j1.38376311253e-001
  -2.77367931448e-001-j1.35624531345e-001
  -2.79900194656e-001-j1.32841449781e-001
  -2.82381662920e-001-j1.29841046138e-001
  -2.84790799638e-001-j1.27068144916e-001
  -2.87163841608e-001-j1.24270466571e-001
  -2.89328488618e-001-j1.21256436937e-001
  -2.91562631377e-001-j1.18348434136e-001
  -2.93788242930e-001-j1.15397896905e-001
  -2.95867259358e-001-j1.12302882740e-001
  -2.97880427678e-001-j1.09353854687e-001
  -2.99817649990e-001-j1.06318366324e-001
  -3.01807386416e-001-j1.03422514431e-001
  -3.03636315368e-001-j1.00391128391e-001
  -3.05513023528e-001-j9.72809164257e-002
  -3.07223042570e-001-j9.40905260391e-002
  -3.08863322798e-001-j9.11004437486e-002
  -3.10509636199e-001-j8.80537636870e-002
  -3.12152495852e-001-j8.50044270812e-002
  -3.13591062081e-001-j8.18407598868e-002
  -3.15082588600e-001-j7.87020339975e-002
  -3.16377076580e-001-j7.56847863263e-002
  -3.17747754875e-001-j7.25133782200e-002
  -3.19148367075e-001-j6.93703336980e-002
  -3.20315706011e-001-j6.63073366279e-002
  -3.21547136199e-001-j6.31619946910e-002
  -3.22794405053e-001-j6.00646733588e-002
  -3.23883552015e-001-j5.69516552603e-002
  -3.24845204413e-001-j5.37384356235e-002
  -3.25640795554e-001-j5.07220736240e-002
  -3.26695777776e-001-j4.75189961223e-002
  -3.27537548267e-001-j4.45296170907e-002
  -3.28351720189e-001-j4.13206677145e-002
  -3.29039013278e-001-j3.83147975373e-002
  -3.29963789145e-001-j3.52167327346e-002
  -3.30630428572e-001-j3.21665468503e-002
  -3.31303107753e-001-j2.90177777583e-002
  -3.31911155947e-001-j2.59079555574e-002
  -3.32555889702e-001-j2.27139894666e-002
  -3.33647890811e-001-j1.96804610273e-002
  -3.33779277153e-001-j1.70781143439e-002
  -3.33919554521e-001-j1.40751481619e-002
  -3.34339014653e-001-j1.08834724329e-002
  -3.34659877178e-001-j8.01373612545e-003
  -3.34818092536e-001-j5.02717893592e-003
  -3.35082990887e-001-j1.97424205340e-003
  -3.34995768538e-001+j9.30421478169e-004
  -3.35444464229e-001+j4.15339761359e-003
  -3.36007350271e-001+j7.27047292668e-003
  -3.36115380122e-001+j1.01173403641e-002
  -3.36010285739e-001+j1.31480235806e-002
  -3.36164915406e-001+j1.61339503539e-002
  -3.36195378159e-001+j1.89801803807e-002
  -3.36136463295e-001+j2.18165480082e-002
  -3.36172847309e-001+j2.48595680554e-002
  -3.35963722222e-001+j2.76895269377e-002
  -3.35782367675e-001+j3.04680570626e-002
  -3.35698037863e-001+j3.32153996529e-002
  -3.35382872069e-001+j3.61110831337e-002
  -3.35118842236e-001+j3.90051194505e-002
  -3.34703956053e-001+j4.16509421190e-002
  -3.34714292840e-001+j4.44116086961e-002
  -3.34329615714e-001+j4.72158882053e-002
  -3.33988906822e-001+j4.99657945911e-002
  -3.33455838970e-001+j5.25841319823e-002
  -3.33074491586e-001+j5.53400535214e-002
  -3.32562507657e-001+j5.80213488450e-002
  -3.32015362520e-001+j6.07346586486e-002
  -3.31641666578e-001+j6.33993814880e-002
  -3.31216378858e-001+j6.60731622018e-002
  -3.30664037658e-001+j6.86735143080e-002
  -3.30021775078e-001+j7.12160919541e-002
  -3.29371630152e-001+j7.38062178373e-002
  -3.28657186906e-001+j7.64725142072e-002
  -3.28109477684e-001+j7.89284378646e-002
  -3.27542414687e-001+j8.14824486498e-002
  -3.26747672989e-001+j8.39654949513e-002
  -3.26042204662e-001+j8.64475879602e-002
  -3.25299493718e-001+j8.89531518450e-002
  -3.24431398240e-001+j9.15408553045e-002
  -3.23877857470e-001+j9.39773626767e-002
  -3.22758200065e-001+j9.64899755081e-002
  -3.21916979427e-001+j9.88177122629e-002
  -3.21094804653e-001+j1.01202027270e-001
  -3.20151235103e-001+j1.03596983774e-001
  -3.19275111150e-001+j1.06001556945e-001
  -3.18283278043e-001+j1.08430861422e-001
  -3.17379720938e-001+j1.10702626150e-001
  -3.16369176067e-001+j1.13013782359e-001
  -3.15285306828e-001+j1.15219855304e-001
  -3.14286652965e-001+j1.17495301114e-001
  -3.13199458431e-001+j1.19714198182e-001
  -3.12151450490e-001+j1.22115266565e-001
  -3.11079582420e-001+j1.24121073429e-001
  -3.09873315798e-001+j1.26239474278e-001
  -3.08808331283e-001+j1.28567569637e-001
  -3.07773846942e-001+j1.30772829075e-001
  -3.06503520938e-001+j1.32817168165e-001
  -3.05489896449e-001+j1.35004644813e-001
  -3.04015145049e-001+j1.37237623448e-001
</dep>
