<Qucs Dataset 0.0.17>
<indep frequency 300>
  +5.00000000000e+010
  +5.03010033445e+010
  +5.06020066890e+010
  +5.09030100334e+010
  +5.12040133779e+010
  +5.15050167224e+010
  +5.18060200669e+010
  +5.21070234114e+010
  +5.24080267559e+010
  +5.27090301003e+010
  +5.30100334448e+010
  +5.33110367893e+010
  +5.36120401338e+010
  +5.39130434783e+010
  +5.42140468227e+010
  +5.45150501672e+010
  +5.48160535117e+010
  +5.51170568562e+010
  +5.54180602007e+010
  +5.57190635452e+010
  +5.60200668896e+010
  +5.63210702341e+010
  +5.66220735786e+010
  +5.69230769231e+010
  +5.72240802676e+010
  +5.75250836120e+010
  +5.78260869565e+010
  +5.81270903010e+010
  +5.84280936455e+010
  +5.87290969900e+010
  +5.90301003344e+010
  +5.93311036789e+010
  +5.96321070234e+010
  +5.99331103679e+010
  +6.02341137124e+010
  +6.05351170569e+010
  +6.08361204013e+010
  +6.11371237458e+010
  +6.14381270903e+010
  +6.17391304348e+010
  +6.20401337793e+010
  +6.23411371237e+010
  +6.26421404682e+010
  +6.29431438127e+010
  +6.32441471572e+010
  +6.35451505017e+010
  +6.38461538462e+010
  +6.41471571906e+010
  +6.44481605351e+010
  +6.47491638796e+010
  +6.50501672241e+010
  +6.53511705686e+010
  +6.56521739130e+010
  +6.59531772575e+010
  +6.62541806020e+010
  +6.65551839465e+010
  +6.68561872910e+010
  +6.71571906355e+010
  +6.74581939799e+010
  +6.77591973244e+010
  +6.80602006689e+010
  +6.83612040134e+010
  +6.86622073579e+010
  +6.89632107023e+010
  +6.92642140468e+010
  +6.95652173913e+010
  +6.98662207358e+010
  +7.01672240803e+010
  +7.04682274247e+010
  +7.07692307692e+010
  +7.10702341137e+010
  +7.13712374582e+010
  +7.16722408027e+010
  +7.19732441472e+010
  +7.22742474916e+010
  +7.25752508361e+010
  +7.28762541806e+010
  +7.31772575251e+010
  +7.34782608696e+010
  +7.37792642140e+010
  +7.40802675585e+010
  +7.43812709030e+010
  +7.46822742475e+010
  +7.49832775920e+010
  +7.52842809365e+010
  +7.55852842809e+010
  +7.58862876254e+010
  +7.61872909699e+010
  +7.64882943144e+010
  +7.67892976589e+010
  +7.70903010033e+010
  +7.73913043478e+010
  +7.76923076923e+010
  +7.79933110368e+010
  +7.82943143813e+010
  +7.85953177258e+010
  +7.88963210702e+010
  +7.91973244147e+010
  +7.94983277592e+010
  +7.97993311037e+010
  +8.01003344482e+010
  +8.04013377926e+010
  +8.07023411371e+010
  +8.10033444816e+010
  +8.13043478261e+010
  +8.16053511706e+010
  +8.19063545151e+010
  +8.22073578595e+010
  +8.25083612040e+010
  +8.28093645485e+010
  +8.31103678930e+010
  +8.34113712375e+010
  +8.37123745819e+010
  +8.40133779264e+010
  +8.43143812709e+010
  +8.46153846154e+010
  +8.49163879599e+010
  +8.52173913043e+010
  +8.55183946488e+010
  +8.58193979933e+010
  +8.61204013378e+010
  +8.64214046823e+010
  +8.67224080268e+010
  +8.70234113712e+010
  +8.73244147157e+010
  +8.76254180602e+010
  +8.79264214047e+010
  +8.82274247492e+010
  +8.85284280936e+010
  +8.88294314381e+010
  +8.91304347826e+010
  +8.94314381271e+010
  +8.97324414716e+010
  +9.00334448161e+010
  +9.03344481605e+010
  +9.06354515050e+010
  +9.09364548495e+010
  +9.12374581940e+010
  +9.15384615385e+010
  +9.18394648829e+010
  +9.21404682274e+010
  +9.24414715719e+010
  +9.27424749164e+010
  +9.30434782609e+010
  +9.33444816054e+010
  +9.36454849498e+010
  +9.39464882943e+010
  +9.42474916388e+010
  +9.45484949833e+010
  +9.48494983278e+010
  +9.51505016722e+010
  +9.54515050167e+010
  +9.57525083612e+010
  +9.60535117057e+010
  +9.63545150502e+010
  +9.66555183946e+010
  +9.69565217391e+010
  +9.72575250836e+010
  +9.75585284281e+010
  +9.78595317726e+010
  +9.81605351171e+010
  +9.84615384615e+010
  +9.87625418060e+010
  +9.90635451505e+010
  +9.93645484950e+010
  +9.96655518395e+010
  +9.99665551839e+010
  +1.00267558528e+011
  +1.00568561873e+011
  +1.00869565217e+011
  +1.01170568562e+011
  +1.01471571906e+011
  +1.01772575251e+011
  +1.02073578595e+011
  +1.02374581940e+011
  +1.02675585284e+011
  +1.02976588629e+011
  +1.03277591973e+011
  +1.03578595318e+011
  +1.03879598662e+011
  +1.04180602007e+011
  +1.04481605351e+011
  +1.04782608696e+011
  +1.05083612040e+011
  +1.05384615385e+011
  +1.05685618729e+011
  +1.05986622074e+011
  +1.06287625418e+011
  +1.06588628763e+011
  +1.06889632107e+011
  +1.07190635452e+011
  +1.07491638796e+011
  +1.07792642140e+011
  +1.08093645485e+011
  +1.08394648829e+011
  +1.08695652174e+011
  +1.08996655518e+011
  +1.09297658863e+011
  +1.09598662207e+011
  +1.09899665552e+011
  +1.10200668896e+011
  +1.10501672241e+011
  +1.10802675585e+011
  +1.11103678930e+011
  +1.11404682274e+011
  +1.11705685619e+011
  +1.12006688963e+011
  +1.12307692308e+011
  +1.12608695652e+011
  +1.12909698997e+011
  +1.13210702341e+011
  +1.13511705686e+011
  +1.13812709030e+011
  +1.14113712375e+011
  +1.14414715719e+011
  +1.14715719064e+011
  +1.15016722408e+011
  +1.15317725753e+011
  +1.15618729097e+011
  +1.15919732441e+011
  +1.16220735786e+011
  +1.16521739130e+011
  +1.16822742475e+011
  +1.17123745819e+011
  +1.17424749164e+011
  +1.17725752508e+011
  +1.18026755853e+011
  +1.18327759197e+011
  +1.18628762542e+011
  +1.18929765886e+011
  +1.19230769231e+011
  +1.19531772575e+011
  +1.19832775920e+011
  +1.20133779264e+011
  +1.20434782609e+011
  +1.20735785953e+011
  +1.21036789298e+011
  +1.21337792642e+011
  +1.21638795987e+011
  +1.21939799331e+011
  +1.22240802676e+011
  +1.22541806020e+011
  +1.22842809365e+011
  +1.23143812709e+011
  +1.23444816054e+011
  +1.23745819398e+011
  +1.24046822742e+011
  +1.24347826087e+011
  +1.24648829431e+011
  +1.24949832776e+011
  +1.25250836120e+011
  +1.25551839465e+011
  +1.25852842809e+011
  +1.26153846154e+011
  +1.26454849498e+011
  +1.26755852843e+011
  +1.27056856187e+011
  +1.27357859532e+011
  +1.27658862876e+011
  +1.27959866221e+011
  +1.28260869565e+011
  +1.28561872910e+011
  +1.28862876254e+011
  +1.29163879599e+011
  +1.29464882943e+011
  +1.29765886288e+011
  +1.30066889632e+011
  +1.30367892977e+011
  +1.30668896321e+011
  +1.30969899666e+011
  +1.31270903010e+011
  +1.31571906355e+011
  +1.31872909699e+011
  +1.32173913043e+011
  +1.32474916388e+011
  +1.32775919732e+011
  +1.33076923077e+011
  +1.33377926421e+011
  +1.33678929766e+011
  +1.33979933110e+011
  +1.34280936455e+011
  +1.34581939799e+011
  +1.34882943144e+011
  +1.35183946488e+011
  +1.35484949833e+011
  +1.35785953177e+011
  +1.36086956522e+011
  +1.36387959866e+011
  +1.36688963211e+011
  +1.36989966555e+011
  +1.37290969900e+011
  +1.37591973244e+011
  +1.37892976589e+011
  +1.38193979933e+011
  +1.38494983278e+011
  +1.38795986622e+011
  +1.39096989967e+011
  +1.39397993311e+011
  +1.39698996656e+011
  +1.40000000000e+011
</indep>
<dep S[1,1] frequency>
  +2.77555756156e-017+j6.40000000000e-001
  +4.37090776777e-004+j6.39999504136e-001
  +8.74181553554e-004+j6.39999008272e-001
  +1.31127233033e-003+j6.39998512408e-001
  +1.85019661053e-003+j6.42037004727e-001
  +2.43753353990e-003+j6.45044852085e-001
  +3.02487046927e-003+j6.48052699442e-001
  +3.64619886725e-003+j6.49989394713e-001
  +4.32913680209e-003+j6.49984626830e-001
  +5.01207473693e-003+j6.49979858946e-001
  +5.70201615090e-003+j6.50075265439e-001
  +6.59505845954e-003+j6.53075728845e-001
  +7.48810076818e-003+j6.56076192252e-001
  +8.38114307681e-003+j6.59076655659e-001
  +9.36790586455e-003+j6.62072855044e-001
  +1.03927425969e-002+j6.65067322170e-001
  +1.14175793293e-002+j6.68061789295e-001
  +1.24817985098e-002+j6.69882644567e-001
  +1.36079043946e-002+j6.69859252639e-001
  +1.47340102794e-002+j6.69835860712e-001
  +1.58754765532e-002+j6.70012352234e-001
  +1.72319882741e-002+j6.72987212060e-001
  +1.85884999950e-002+j6.75962071886e-001
  +1.99450117159e-002+j6.78936931713e-001
  +2.14103927902e-002+j6.81901993095e-001
  +2.29131469262e-002+j6.84863690832e-001
  +2.44159010623e-002+j6.87825388570e-001
  +2.60133563513e-002+j6.90778985379e-001
  +2.77404026919e-002+j6.93721496708e-001
  +2.94674490326e-002+j6.96664008036e-001
  +3.11944277062e-002+j6.99303900381e-001
  +3.29207973776e-002+j6.99220221875e-001
  +3.46471670490e-002+j6.99136543368e-001
  +3.63735367204e-002+j6.99052864862e-001
  +3.83862182690e-002+j7.01286126325e-001
  +4.04807032110e-002+j7.04181370637e-001
  +4.25751881530e-002+j7.07076614948e-001
  +4.47455860781e-002+j7.09958658303e-001
  +4.70067092755e-002+j7.12824924903e-001
  +4.92678324730e-002+j7.15691191504e-001
  +5.15241624286e-002+j7.18152590403e-001
  +5.37493363118e-002+j7.17982349235e-001
  +5.59745101951e-002+j7.17812108067e-001
  +5.81996840783e-002+j7.17641866898e-001
  +6.07710615631e-002+j7.19872788224e-001
  +6.34230618045e-002+j7.22662884377e-001
  +6.60750620459e-002+j7.25452980530e-001
  +6.88147964721e-002+j7.28221249642e-001
  +7.16462530004e-002+j7.30966699575e-001
  +7.44777095288e-002+j7.33712149508e-001
  +7.72880582339e-002+j7.35950175852e-001
  +7.99928678227e-002+j7.35651084251e-001
  +8.26976774115e-002+j7.35351992651e-001
  +8.54024870004e-002+j7.35052901051e-001
  +8.85616402853e-002+j7.37229692425e-001
  +9.18044884616e-002+j7.39862567504e-001
  +9.50473366378e-002+j7.42495442583e-001
  +9.84104742449e-002+j7.45091748803e-001
  +1.01883663884e-001+j7.47654598408e-001
  +1.05356853524e-001+j7.50217448013e-001
  +1.08774963563e-001+j7.52171174853e-001
  +1.11972755201e-001+j7.51688410631e-001
  +1.15170546839e-001+j7.51205646410e-001
  +1.18368338477e-001+j7.50722882188e-001
  +1.22149526757e-001+j7.52779841469e-001
  +1.26011947480e-001+j7.55190433135e-001
  +1.29874368203e-001+j7.57601024801e-001
  +1.33536884728e-001+j7.58319473251e-001
  +1.37039477896e-001+j7.57684207126e-001
  +1.40542071063e-001+j7.57048941002e-001
  +1.44220978226e-001+j7.57081433059e-001
  +1.48479202803e-001+j7.59307987709e-001
  +1.52737427379e-001+j7.61534542359e-001
  +1.56995651955e-001+j7.63761097009e-001
  +1.60841940203e-001+j7.63214635851e-001
  +1.64648039540e-001+j7.62397636566e-001
  +1.68454138877e-001+j7.61580637281e-001
  +1.72761992530e-001+j7.62426930495e-001
  +1.77420127498e-001+j7.64434390170e-001
  +1.82078262466e-001+j7.66441849845e-001
  +1.86589122950e-001+j7.67639171508e-001
  +1.90694978607e-001+j7.66608613637e-001
  +1.94800834263e-001+j7.65578055767e-001
  +1.98906689920e-001+j7.64547497896e-001
  +2.03874721583e-001+j7.66153792454e-001
  +2.08893469482e-001+j7.67915195980e-001
  +2.13912217382e-001+j7.69676599505e-001
  +2.18545468810e-001+j7.69547024288e-001
  +2.22944668811e-001+j7.68269354835e-001
  +2.27343868811e-001+j7.66991685383e-001
  +2.32060640467e-001+j7.66532964860e-001
  +2.37518412649e-001+j7.67985125175e-001
  +2.42976184832e-001+j7.69437285489e-001
  +2.48433957015e-001+j7.70889445803e-001
  +2.53094241779e-001+j7.69407830936e-001
  +2.57736401829e-001+j7.67859539359e-001
  +2.62378561878e-001+j7.66311247783e-001
  +2.67130643743e-001+j7.64653933025e-001
  +2.71940481137e-001+j7.62939334900e-001
  +2.76750318531e-001+j7.61224736775e-001
  +2.81574242625e-001+j7.59466322472e-001
  +2.86426340117e-001+j7.57620275812e-001
  +2.91278437609e-001+j7.55774229152e-001
  +2.96144737729e-001+j7.53957164153e-001
  +3.02275071715e-001+j7.54719466932e-001
  +3.08405405702e-001+j7.55481769711e-001
  +3.14535739688e-001+j7.56244072490e-001
  +3.19984853509e-001+j7.54952185189e-001
  +3.25126319514e-001+j7.52732599143e-001
  +3.30267785519e-001+j7.50513013096e-001
  +3.35433138307e-001+j7.48230604034e-001
  +3.40639750082e-001+j7.45839682491e-001
  +3.45846361858e-001+j7.43448760947e-001
  +3.51057287866e-001+j7.41049058247e-001
  +3.56360969866e-001+j7.38460560675e-001
  +3.61664651866e-001+j7.35872063104e-001
  +3.66968333865e-001+j7.33283565532e-001
  +3.72308570981e-001+j7.30560080104e-001
  +3.77662867758e-001+j7.27784676270e-001
  +3.83017164534e-001+j7.25009272435e-001
  +3.88403676529e-001+j7.22147911461e-001
  +3.93838511352e-001+j7.19157614778e-001
  +3.99273346176e-001+j7.16167318095e-001
  +4.04710819216e-001+j7.13161295882e-001
  +4.10179573973e-001+j7.09968813813e-001
  +4.15648328729e-001+j7.06776331743e-001
  +4.21117083486e-001+j7.03583849673e-001
  +4.26659846943e-001+j7.00198709358e-001
  +4.32226554390e-001+j6.96751238435e-001
  +4.37793261837e-001+j6.93303767511e-001
  +4.43365885799e-001+j6.89761466695e-001
  +4.48946246740e-001+j6.86095157556e-001
  +4.54526607682e-001+j6.82428848417e-001
  +4.60111280705e-001+j6.78734757723e-001
  +4.65730450374e-001+j6.74818414585e-001
  +4.71349620043e-001+j6.70902071448e-001
  +4.76968789712e-001+j6.66985728310e-001
  +4.82608689246e-001+j6.62865235653e-001
  +4.88254136209e-001+j6.58690111435e-001
  +4.93899583171e-001+j6.54514987217e-001
  +4.99566708042e-001+j6.50202515781e-001
  +5.05258607665e-001+j6.45733076096e-001
  +5.10950507287e-001+j6.41263636411e-001
  +5.16642002219e-001+j6.36754146511e-001
  +5.22331100131e-001+j6.32007436111e-001
  +5.28020198044e-001+j6.27260725710e-001
  +5.33709295956e-001+j6.22514015309e-001
  +5.37712945042e-001+j6.15707185895e-001
  +5.41352172759e-001+j6.08454925343e-001
  +5.44991400476e-001+j6.01202664790e-001
  +5.49610609313e-001+j5.94932326795e-001
  +5.55209799270e-001+j5.89643911357e-001
  +5.60808989227e-001+j5.84355495919e-001
  +5.66398969750e-001+j5.79014305296e-001
  +5.71946356643e-001+j5.73429029441e-001
  +5.77493743536e-001+j5.67843753585e-001
  +5.83041130430e-001+j5.62258477730e-001
  +5.86663257734e-001+j5.54637964618e-001
  +5.89960341212e-001+j5.46673840022e-001
  +5.93257424691e-001+j5.38709715425e-001
  +5.97663213349e-001+j5.31694264136e-001
  +6.03039119041e-001+j5.25508901993e-001
  +6.08415024732e-001+j5.19323539849e-001
  +6.13277970297e-001+j5.12667078171e-001
  +6.16224064865e-001+j5.04250191914e-001
  +6.19170159433e-001+j4.95833305658e-001
  +6.22116254001e-001+j4.87416419402e-001
  +6.27014783508e-001+j4.80410633858e-001
  +6.32157367382e-001+j4.73581235902e-001
  +6.37299951256e-001+j4.66751837946e-001
  +6.42380162002e-001+j4.59703012475e-001
  +6.47412675650e-001+j4.52486389493e-001
  +6.52445189298e-001+j4.45269766510e-001
  +6.56817219402e-001+j4.37570955137e-001
  +6.59147754917e-001+j4.28381743281e-001
  +6.61478290432e-001+j4.19192531425e-001
  +6.63808825946e-001+j4.10003319570e-001
  +6.68289945900e-001+j4.01997628313e-001
  +6.72952440444e-001+j3.94091752046e-001
  +6.77614934989e-001+j3.86185875780e-001
  +6.80549583493e-001+j3.77220003314e-001
  +6.82332334635e-001+j3.67547466715e-001
  +6.84115085778e-001+j3.57874930116e-001
  +6.85807453224e-001+j3.48144370257e-001
  +6.87264823060e-001+j3.38262949920e-001
  +6.88722192896e-001+j3.28381529584e-001
  +6.90179562732e-001+j3.18500109248e-001
  +6.93959031740e-001+j3.09525865365e-001
  +6.97846505359e-001+j3.00593815735e-001
  +7.01733978979e-001+j2.91661766106e-001
  +7.03644652458e-001+j2.81818068740e-001
  +7.04410862698e-001+j2.71446575316e-001
  +7.05177072937e-001+j2.61075081892e-001
  +7.06711957555e-001+j2.50919644348e-001
  +7.09948906866e-001+j2.41242616255e-001
  +7.13185856177e-001+j2.31565588161e-001
  +7.16422805488e-001+j2.21888560067e-001
  +7.16411431041e-001+j2.11065402483e-001
  +7.16363558575e-001+j2.00229367040e-001
  +7.16315686108e-001+j1.89393331596e-001
  +7.17917549167e-001+j1.78867425182e-001
  +7.20344279989e-001+j1.68496583284e-001
  +7.22771010811e-001+j1.58125741385e-001
  +7.24018735978e-001+j1.47451393390e-001
  +7.23022547154e-001+j1.36199404759e-001
  +7.22026358330e-001+j1.24947416129e-001
  +7.21018177779e-001+j1.13693396443e-001
  +7.19482361250e-001+j1.02350010346e-001
  +7.17946544721e-001+j9.10066242494e-002
  +7.16410728192e-001+j7.96632381525e-002
  +7.16582765388e-001+j6.83696393292e-002
  +7.17486739895e-001+j5.70973779088e-002
  +7.18390714402e-001+j4.58251164884e-002
  +7.17935094307e-001+j3.44261259465e-002
  +7.15240141928e-001+j2.28184050869e-002
  +7.12545189548e-001+j1.12106842273e-002
  +7.09982245673e-001-j4.04587997372e-004
  +7.09663446387e-001-j1.21482334276e-002
  +7.09344647102e-001-j2.38918788578e-002
  +7.09025847816e-001-j3.56355242880e-002
  +7.08207049401e-001-j4.75979916861e-002
  +7.07206433121e-001-j5.96400307090e-002
  +7.06205816840e-001-j7.16820697318e-002
  +7.03685689426e-001-j8.36055992580e-002
  +6.98988964983e-001-j9.53593719375e-002
  +6.94292240540e-001-j1.07113144617e-001
  +6.89792806711e-001-j1.18914680050e-001
  +6.87315601675e-001-j1.31205783706e-001
  +6.84838396639e-001-j1.43496887363e-001
  +6.82361191604e-001-j1.55787991019e-001
  +6.79270651941e-001-j1.68138630764e-001
  +6.75993445217e-001-j1.80507390188e-001
  +6.72716238494e-001-j1.92876149612e-001
  +6.69068726676e-001-j2.05253805249e-001
  +6.64958333489e-001-j2.17642581153e-001
  +6.60847940302e-001-j2.30031357057e-001
  +6.56632099661e-001-j2.42414926063e-001
  +6.51658954574e-001-j2.54761100075e-001
  +6.46685809488e-001-j2.67107274087e-001
  +6.41712664401e-001-j2.79453448099e-001
  +6.36042605096e-001-j2.91685431061e-001
  +6.30198317236e-001-j3.03888866261e-001
  +6.24354029376e-001-j3.16092301461e-001
  +6.18095848907e-001-j3.28179691061e-001
  +6.11385274189e-001-j3.40140240123e-001
  +6.04674699472e-001-j3.52100789185e-001
  +5.98216081791e-001-j3.64276348273e-001
  +5.93125230876e-001-j3.77619104645e-001
  +5.88034379962e-001-j3.90961861016e-001
  +5.82943529047e-001-j4.04304617387e-001
  +5.74996513114e-001-j4.16005150838e-001
  +5.66478264177e-001-j4.27377239706e-001
  +5.57960015241e-001-j4.38749328573e-001
  +5.50172379261e-001-j4.50888110748e-001
  +5.43083590459e-001-j4.63760251740e-001
  +5.35994801656e-001-j4.76632392733e-001
  +5.28709474067e-001-j4.89446762835e-001
  +5.20580185806e-001-j5.02013057939e-001
  +5.12450897546e-001-j5.14579353043e-001
  +5.04321609285e-001-j5.27145648147e-001
  +4.95371926131e-001-j5.39309253094e-001
  +4.86296028377e-001-j5.51410905710e-001
  +4.77220130624e-001-j5.63512558326e-001
  +4.67627333964e-001-j5.75335831565e-001
  +4.57602030056e-001-j5.86926175122e-001
  +4.47576726147e-001-j5.98516518679e-001
  +4.37369319741e-001-j6.09962796053e-001
  +4.26524554591e-001-j6.20904841784e-001
  +4.15679789441e-001-j6.31846887516e-001
  +4.04835024291e-001-j6.42788933248e-001
  +3.94582679002e-001-j6.55484463634e-001
  +3.84396158143e-001-j6.68374825647e-001
  +3.74209637283e-001-j6.81265187661e-001
  +3.62682856313e-001-j6.92241377129e-001
  +3.50176654494e-001-j7.01818748197e-001
  +3.37670452675e-001-j7.11396119266e-001
  +3.25288676262e-001-j7.21478342290e-001
  +3.13269356467e-001-j7.33031221010e-001
  +3.01250036672e-001-j7.44584099730e-001
  +2.89230716876e-001-j7.56136978450e-001
  +2.76429229733e-001-j7.66989459430e-001
  +2.63571873494e-001-j7.77791911999e-001
  +2.50714517255e-001-j7.88594364568e-001
  +2.37387744476e-001-j7.98908190278e-001
  +2.23762252082e-001-j8.08911071622e-001
  +2.10136759687e-001-j8.18913952966e-001
  +1.96323171240e-001-j8.28671517482e-001
  +1.82046577123e-001-j8.37825225192e-001
  +1.67769983007e-001-j8.46978932903e-001
  +1.53493388890e-001-j8.56132640613e-001
  +1.38956132022e-001-j8.67335290836e-001
  +1.24409886783e-001-j8.78608594249e-001
  +1.09863641544e-001-j8.89881897662e-001
  +9.46565300958e-002-j8.98659041855e-001
  +7.90848028080e-002-j9.06058994754e-001
  +6.35130755201e-002-j9.13458947653e-001
  +4.78224223972e-002-j9.21532131261e-001
  +3.18816149315e-002-j9.31021420840e-001
  +1.59408074657e-002-j9.40510710420e-001
  +5.55111512313e-017-j9.50000000000e-001
</dep>
<dep S[1,2] frequency>
  +2.77555756156e-017+j3.20000000000e-001
  -2.18545388389e-004+j3.19999752068e-001
  -4.37090776777e-004+j3.19999504136e-001
  -6.55636165166e-004+j3.19999256204e-001
  -9.19757271927e-004+j3.19998449457e-001
  -1.20554552349e-003+j3.19997377043e-001
  -1.49133377505e-003+j3.19996304630e-001
  -1.80439118602e-003+j3.21064972298e-001
  -2.16687394842e-003+j3.24072543864e-001
  -2.52935671081e-003+j3.27080115431e-001
  -2.89420296688e-003+j3.29987277021e-001
  -3.32759053934e-003+j3.29982549308e-001
  -3.76097811181e-003+j3.29977821596e-001
  -4.19436568428e-003+j3.29973093883e-001
  -4.66471448620e-003+j3.29966366337e-001
  -5.15007878759e-003+j3.29958826358e-001
