<Qucs Dataset 0.0.17>
<indep acfrequency 19>
  +1.00000000000e+009
  +1.50000000000e+009
  +2.00000000000e+009
  +2.50000000000e+009
  +3.00000000000e+009
  +3.50000000000e+009
  +4.00000000000e+009
  +4.50000000000e+009
  +5.00000000000e+009
  +5.50000000000e+009
  +6.00000000000e+009
  +6.50000000000e+009
  +7.00000000000e+009
  +7.50000000000e+009
  +8.00000000000e+009
  +8.50000000000e+009
  +9.00000000000e+009
  +9.50000000000e+009
  +1.00000000000e+010
</indep>
<dep Pr2.v acfrequency>
  +1.00000000000e+000
  +1.00000000000e+000
  +1.00000000000e+000
  +1.00000000000e+000
  +1.00000000000e+000
  +1.00000000000e+000
  +1.00000000000e+000
  +1.00000000000e+000
  +1.00000000000e+000
  +1.00000000000e+000
  +1.00000000000e+000
  +1.00000000000e+000
  +1.00000000000e+000
  +1.00000000000e+000
  +1.00000000000e+000
  +1.00000000000e+000
  +1.00000000000e+000
  +1.00000000000e+000
  +1.00000000000e+000
</dep>
<dep Pr1.v acfrequency>
  +2.00000000000e+000
  +2.00000000000e+000
  +2.00000000000e+000
  +2.00000000000e+000
  +2.00000000000e+000
  +2.00000000000e+000
  +2.00000000000e+000
  +2.00000000000e+000
  +2.00000000000e+000
  +2.00000000000e+000
  +2.00000000000e+000
  +2.00000000000e+000
  +2.00000000000e+000
  +2.00000000000e+000
  +2.00000000000e+000
  +2.00000000000e+000
  +2.00000000000e+000
  +2.00000000000e+000
  +2.00000000000e+000
</dep>
<dep V1.i acfrequency>
  +0.00000000000e+000
  +0.00000000000e+000
  +0.00000000000e+000
  +0.00000000000e+000
  +0.00000000000e+000
  +0.00000000000e+000
  +0.00000000000e+000
  +0.00000000000e+000
  +0.00000000000e+000
  +0.00000000000e+000
  +0.00000000000e+000
  +0.00000000000e+000
  +0.00000000000e+000
  +0.00000000000e+000
  +0.00000000000e+000
  +0.00000000000e+000
  +0.00000000000e+000
  +0.00000000000e+000
  +0.00000000000e+000
</dep>
<dep _net1.v acfrequency>
  +2.00000000000e+000
  +2.00000000000e+000
  +2.00000000000e+000
  +2.00000000000e+000
  +2.00000000000e+000
  +2.00000000000e+000
  +2.00000000000e+000
  +2.00000000000e+000
  +2.00000000000e+000
  +2.00000000000e+000
  +2.00000000000e+000
  +2.00000000000e+000
  +2.00000000000e+000
  +2.00000000000e+000
  +2.00000000000e+000
  +2.00000000000e+000
  +2.00000000000e+000
  +2.00000000000e+000
  +2.00000000000e+000
</dep>
<dep _net0.v acfrequency>
  +1.00000000000e+000
  +1.00000000000e+000
  +1.00000000000e+000
  +1.00000000000e+000
  +1.00000000000e+000
  +1.00000000000e+000
  +1.00000000000e+000
  +1.00000000000e+000
  +1.00000000000e+000
  +1.00000000000e+000
  +1.00000000000e+000
  +1.00000000000e+000
  +1.00000000000e+000
  +1.00000000000e+000
  +1.00000000000e+000
  +1.00000000000e+000
  +1.00000000000e+000
  +1.00000000000e+000
  +1.00000000000e+000
</dep>
