<Qucs Dataset 0.0.17>
<indep y 1>
  +1.00000000000e+000
</indep>
<indep frequency 100>
  +1.00000000000e+003
  +1.02000000000e+005
  +2.03000000000e+005
  +3.04000000000e+005
  +4.05000000000e+005
  +5.06000000000e+005
  +6.07000000000e+005
  +7.08000000000e+005
  +8.09000000000e+005
  +9.10000000000e+005
  +1.01100000000e+006
  +1.11200000000e+006
  +1.21300000000e+006
  +1.31400000000e+006
  +1.41500000000e+006
  +1.51600000000e+006
  +1.61700000000e+006
  +1.71800000000e+006
  +1.81900000000e+006
  +1.92000000000e+006
  +2.02100000000e+006
  +2.12200000000e+006
  +2.22300000000e+006
  +2.32400000000e+006
  +2.42500000000e+006
  +2.52600000000e+006
  +2.62700000000e+006
  +2.72800000000e+006
  +2.82900000000e+006
  +2.93000000000e+006
  +3.03100000000e+006
  +3.13200000000e+006
  +3.23300000000e+006
  +3.33400000000e+006
  +3.43500000000e+006
  +3.53600000000e+006
  +3.63700000000e+006
  +3.73800000000e+006
  +3.83900000000e+006
  +3.94000000000e+006
  +4.04100000000e+006
  +4.14200000000e+006
  +4.24300000000e+006
  +4.34400000000e+006
  +4.44500000000e+006
  +4.54600000000e+006
  +4.64700000000e+006
  +4.74800000000e+006
  +4.84900000000e+006
  +4.95000000000e+006
  +5.05100000000e+006
  +5.15200000000e+006
  +5.25300000000e+006
  +5.35400000000e+006
  +5.45500000000e+006
  +5.55600000000e+006
  +5.65700000000e+006
  +5.75800000000e+006
  +5.85900000000e+006
  +5.96000000000e+006
  +6.06100000000e+006
  +6.16200000000e+006
  +6.26300000000e+006
  +6.36400000000e+006
  +6.46500000000e+006
  +6.56600000000e+006
  +6.66700000000e+006
  +6.76800000000e+006
  +6.86900000000e+006
  +6.97000000000e+006
  +7.07100000000e+006
  +7.17200000000e+006
  +7.27300000000e+006
  +7.37400000000e+006
  +7.47500000000e+006
  +7.57600000000e+006
  +7.67700000000e+006
  +7.77800000000e+006
  +7.87900000000e+006
  +7.98000000000e+006
  +8.08100000000e+006
  +8.18200000000e+006
  +8.28300000000e+006
  +8.38400000000e+006
  +8.48500000000e+006
  +8.58600000000e+006
  +8.68700000000e+006
  +8.78800000000e+006
  +8.88900000000e+006
  +8.99000000000e+006
  +9.09100000000e+006
  +9.19200000000e+006
  +9.29300000000e+006
  +9.39400000000e+006
  +9.49500000000e+006
  +9.59600000000e+006
  +9.69700000000e+006
  +9.79800000000e+006
  +9.89900000000e+006
  +1.00000000000e+007
</indep>
<dep dBs21 frequency>
  -5.48315698527e+000
  -5.48315698527e+000
  -5.48315698527e+000
  -5.48315698527e+000
  -5.48315698527e+000
  -5.48315698527e+000
  -5.48315698527e+000
  -5.48315698527e+000
  -5.48315698527e+000
  -5.48315698527e+000
  -5.48315698527e+000
  -5.48315698527e+000
  -5.48315698527e+000
  -5.48315698527e+000
  -5.48315698527e+000
  -5.48315698527e+000
  -5.48315698527e+000
  -5.48315698527e+000
  -5.48315698527e+000
  -5.48315698527e+000
  -5.48315698527e+000
  -5.48315698527e+000
  -5.48315698527e+000
  -5.48315698527e+000
  -5.48315698527e+000
  -5.48315698527e+000
  -5.48315698527e+000
  -5.48315698527e+000
  -5.48315698527e+000
  -5.48315698527e+000
  -5.48315698527e+000
  -5.48315698527e+000
  -5.48315698527e+000
  -5.48315698527e+000
  -5.48315698527e+000
  -5.48315698527e+000
  -5.48315698527e+000
  -5.48315698527e+000
  -5.48315698527e+000
  -5.48315698527e+000
  -5.48315698527e+000
  -5.48315698527e+000
  -5.48315698527e+000
  -5.48315698527e+000
  -5.48315698527e+000
  -5.48315698527e+000
  -5.48315698527e+000
  -5.48315698527e+000
  -5.48315698527e+000
  -5.48315698527e+000
  -5.48315698527e+000
  -5.48315698527e+000
  -5.48315698527e+000
  -5.48315698527e+000
  -5.48315698527e+000
  -5.48315698527e+000
  -5.48315698527e+000
  -5.48315698527e+000
  -5.48315698527e+000
  -5.48315698527e+000
  -5.48315698527e+000
  -5.48315698527e+000
  -5.48315698527e+000
  -5.48315698527e+000
  -5.48315698527e+000
  -5.48315698527e+000
  -5.48315698527e+000
  -5.48315698527e+000
  -5.48315698527e+000
  -5.48315698527e+000
  -5.48315698527e+000
  -5.48315698527e+000
  -5.48315698527e+000
  -5.48315698527e+000
  -5.48315698527e+000
  -5.48315698527e+000
  -5.48315698527e+000
  -5.48315698527e+000
  -5.48315698527e+000
  -5.48315698527e+000
  -5.48315698527e+000
  -5.48315698527e+000
  -5.48315698527e+000
  -5.48315698527e+000
  -5.48315698527e+000
  -5.48315698527e+000
  -5.48315698527e+000
  -5.48315698527e+000
  -5.48315698527e+000
  -5.48315698527e+000
  -5.48315698527e+000
  -5.48315698527e+000
  -5.48315698527e+000
  -5.48315698527e+000
  -5.48315698527e+000
  -5.48315698527e+000
  -5.48315698527e+000
  -5.48315698527e+000
  -5.48315698527e+000
  -5.48315698527e+000
</dep>
<dep S[1,1] frequency>
  +4.68085106383e-001
  +4.68085106383e-001
  +4.68085106383e-001
  +4.68085106383e-001
  +4.68085106383e-001
  +4.68085106383e-001
  +4.68085106383e-001
  +4.68085106383e-001
  +4.68085106383e-001
  +4.68085106383e-001
  +4.68085106383e-001
  +4.68085106383e-001
  +4.68085106383e-001
  +4.68085106383e-001
  +4.68085106383e-001
  +4.68085106383e-001
  +4.68085106383e-001
  +4.68085106383e-001
  +4.68085106383e-001
  +4.68085106383e-001
  +4.68085106383e-001
  +4.68085106383e-001
  +4.68085106383e-001
  +4.68085106383e-001
  +4.68085106383e-001
  +4.68085106383e-001
  +4.68085106383e-001
  +4.68085106383e-001
  +4.68085106383e-001
  +4.68085106383e-001
  +4.68085106383e-001
  +4.68085106383e-001
  +4.68085106383e-001
  +4.68085106383e-001
  +4.68085106383e-001
  +4.68085106383e-001
  +4.68085106383e-001
  +4.68085106383e-001
  +4.68085106383e-001
  +4.68085106383e-001
  +4.68085106383e-001
  +4.68085106383e-001
  +4.68085106383e-001
  +4.68085106383e-001
  +4.68085106383e-001
  +4.68085106383e-001
  +4.68085106383e-001
  +4.68085106383e-001
  +4.68085106383e-001
  +4.68085106383e-001
  +4.68085106383e-001
  +4.68085106383e-001
  +4.68085106383e-001
  +4.68085106383e-001
  +4.68085106383e-001
  +4.68085106383e-001
  +4.68085106383e-001
  +4.68085106383e-001
  +4.68085106383e-001
  +4.68085106383e-001
  +4.68085106383e-001
  +4.68085106383e-001
  +4.68085106383e-001
  +4.68085106383e-001
  +4.68085106383e-001
  +4.68085106383e-001
  +4.68085106383e-001
  +4.68085106383e-001
  +4.68085106383e-001
  +4.68085106383e-001
  +4.68085106383e-001
  +4.68085106383e-001
  +4.68085106383e-001
  +4.68085106383e-001
  +4.68085106383e-001
  +4.68085106383e-001
  +4.68085106383e-001
  +4.68085106383e-001
  +4.68085106383e-001
  +4.68085106383e-001
  +4.68085106383e-001
  +4.68085106383e-001
  +4.68085106383e-001
  +4.68085106383e-001
  +4.68085106383e-001
  +4.68085106383e-001
  +4.68085106383e-001
  +4.68085106383e-001
  +4.68085106383e-001
  +4.68085106383e-001
  +4.68085106383e-001
  +4.68085106383e-001
  +4.68085106383e-001
  +4.68085106383e-001
  +4.68085106383e-001
  +4.68085106383e-001
  +4.68085106383e-001
  +4.68085106383e-001
  +4.68085106383e-001
  +4.68085106383e-001
</dep>
<dep S[1,2] frequency>
  +5.31914893617e-001
  +5.31914893617e-001
  +5.31914893617e-001
  +5.31914893617e-001
  +5.31914893617e-001
  +5.31914893617e-001
  +5.31914893617e-001
  +5.31914893617e-001
  +5.31914893617e-001
  +5.31914893617e-001
  +5.31914893617e-001
  +5.31914893617e-001
  +5.31914893617e-001
  +5.31914893617e-001
  +5.31914893617e-001
  +5.31914893617e-001
  +5.31914893617e-001
  +5.31914893617e-001
  +5.31914893617e-001
  +5.31914893617e-001
  +5.31914893617e-001
  +5.31914893617e-001
  +5.31914893617e-001
  +5.31914893617e-001
  +5.31914893617e-001
  +5.31914893617e-001
  +5.31914893617e-001
  +5.31914893617e-001
  +5.31914893617e-001
  +5.31914893617e-001
  +5.31914893617e-001
  +5.31914893617e-001
  +5.31914893617e-001
  +5.31914893617e-001
  +5.31914893617e-001
  +5.31914893617e-001
  +5.31914893617e-001
  +5.31914893617e-001
  +5.31914893617e-001
  +5.31914893617e-001
  +5.31914893617e-001
  +5.31914893617e-001
  +5.31914893617e-001
  +5.31914893617e-001
  +5.31914893617e-001
  +5.31914893617e-001
  +5.31914893617e-001
  +5.31914893617e-001
  +5.31914893617e-001
  +5.31914893617e-001
  +5.31914893617e-001
  +5.31914893617e-001
  +5.31914893617e-001
  +5.31914893617e-001
  +5.31914893617e-001
  +5.31914893617e-001
  +5.31914893617e-001
  +5.31914893617e-001
  +5.31914893617e-001
  +5.31914893617e-001
  +5.31914893617e-001
  +5.31914893617e-001
  +5.31914893617e-001
  +5.31914893617e-001
  +5.31914893617e-001
  +5.31914893617e-001
  +5.31914893617e-001
  +5.31914893617e-001
  +5.31914893617e-001
  +5.31914893617e-001
  +5.31914893617e-001
  +5.31914893617e-001
  +5.31914893617e-001
  +5.31914893617e-001
  +5.31914893617e-001
  +5.31914893617e-001
  +5.31914893617e-001
  +5.31914893617e-001
  +5.31914893617e-001
  +5.31914893617e-001
  +5.31914893617e-001
  +5.31914893617e-001
  +5.31914893617e-001
  +5.31914893617e-001
  +5.31914893617e-001
  +5.31914893617e-001
  +5.31914893617e-001
  +5.31914893617e-001
  +5.31914893617e-001
  +5.31914893617e-001
  +5.31914893617e-001
  +5.31914893617e-001
  +5.31914893617e-001
  +5.31914893617e-001
  +5.31914893617e-001
  +5.31914893617e-001
  +5.31914893617e-001
  +5.31914893617e-001
  +5.31914893617e-001
  +5.31914893617e-001
</dep>
<dep S[2,1] frequency>
  +5.31914893617e-001
  +5.31914893617e-001
  +5.31914893617e-001
  +5.31914893617e-001
  +5.31914893617e-001
  +5.31914893617e-001
  +5.31914893617e-001
  +5.31914893617e-001
  +5.31914893617e-001
  +5.31914893617e-001
  +5.31914893617e-001
  +5.31914893617e-001
  +5.31914893617e-001
  +5.31914893617e-001
  +5.31914893617e-001
  +5.31914893617e-001
  +5.31914893617e-001
  +5.31914893617e-001
  +5.31914893617e-001
  +5.31914893617e-001
  +5.31914893617e-001
  +5.31914893617e-001
  +5.31914893617e-001
  +5.31914893617e-001
  +5.31914893617e-001
  +5.31914893617e-001
  +5.31914893617e-001
  +5.31914893617e-001
  +5.31914893617e-001
  +5.31914893617e-001
  +5.31914893617e-001
  +5.31914893617e-001
  +5.31914893617e-001
  +5.31914893617e-001
  +5.31914893617e-001
  +5.31914893617e-001
  +5.31914893617e-001
  +5.31914893617e-001
  +5.31914893617e-001
  +5.31914893617e-001
  +5.31914893617e-001
  +5.31914893617e-001
  +5.31914893617e-001
  +5.31914893617e-001
  +5.31914893617e-001
  +5.31914893617e-001
  +5.31914893617e-001
  +5.31914893617e-001
  +5.31914893617e-001
  +5.31914893617e-001
  +5.31914893617e-001
  +5.31914893617e-001
  +5.31914893617e-001
  +5.31914893617e-001
  +5.31914893617e-001
  +5.31914893617e-001
  +5.31914893617e-001
  +5.31914893617e-001
  +5.31914893617e-001
  +5.31914893617e-001
  +5.31914893617e-001
  +5.31914893617e-001
  +5.31914893617e-001
  +5.31914893617e-001
  +5.31914893617e-001
  +5.31914893617e-001
  +5.31914893617e-001
  +5.31914893617e-001
  +5.31914893617e-001
  +5.31914893617e-001
  +5.31914893617e-001
  +5.31914893617e-001
  +5.31914893617e-001
  +5.31914893617e-001
  +5.31914893617e-001
  +5.31914893617e-001
  +5.31914893617e-001
  +5.31914893617e-001
  +5.31914893617e-001
  +5.31914893617e-001
  +5.31914893617e-001
  +5.31914893617e-001
  +5.31914893617e-001
  +5.31914893617e-001
  +5.31914893617e-001
  +5.31914893617e-001
  +5.31914893617e-001
  +5.31914893617e-001
  +5.31914893617e-001
  +5.31914893617e-001
  +5.31914893617e-001
  +5.31914893617e-001
  +5.31914893617e-001
  +5.31914893617e-001
  +5.31914893617e-001
  +5.31914893617e-001
  +5.31914893617e-001
  +5.31914893617e-001
  +5.31914893617e-001
  +5.31914893617e-001
</dep>
<dep S[2,2] frequency>
  +4.68085106383e-001
  +4.68085106383e-001
  +4.68085106383e-001
  +4.68085106383e-001
  +4.68085106383e-001
  +4.68085106383e-001
  +4.68085106383e-001
  +4.68085106383e-001
  +4.68085106383e-001
  +4.68085106383e-001
  +4.68085106383e-001
  +4.68085106383e-001
  +4.68085106383e-001
  +4.68085106383e-001
  +4.68085106383e-001
  +4.68085106383e-001
  +4.68085106383e-001
  +4.68085106383e-001
  +4.68085106383e-001
  +4.68085106383e-001
  +4.68085106383e-001
  +4.68085106383e-001
  +4.68085106383e-001
  +4.68085106383e-001
  +4.68085106383e-001
  +4.68085106383e-001
  +4.68085106383e-001
  +4.68085106383e-001
  +4.68085106383e-001
  +4.68085106383e-001
  +4.68085106383e-001
  +4.68085106383e-001
  +4.68085106383e-001
  +4.68085106383e-001
  +4.68085106383e-001
  +4.68085106383e-001
  +4.68085106383e-001
  +4.68085106383e-001
  +4.68085106383e-001
  +4.68085106383e-001
  +4.68085106383e-001
  +4.68085106383e-001
  +4.68085106383e-001
  +4.68085106383e-001
  +4.68085106383e-001
  +4.68085106383e-001
  +4.68085106383e-001
  +4.68085106383e-001
  +4.68085106383e-001
  +4.68085106383e-001
  +4.68085106383e-001
  +4.68085106383e-001
  +4.68085106383e-001
  +4.68085106383e-001
  +4.68085106383e-001
  +4.68085106383e-001
  +4.68085106383e-001
  +4.68085106383e-001
  +4.68085106383e-001
  +4.68085106383e-001
  +4.68085106383e-001
  +4.68085106383e-001
  +4.68085106383e-001
  +4.68085106383e-001
  +4.68085106383e-001
  +4.68085106383e-001
  +4.68085106383e-001
  +4.68085106383e-001
  +4.68085106383e-001
  +4.68085106383e-001
  +4.68085106383e-001
  +4.68085106383e-001
  +4.68085106383e-001
  +4.68085106383e-001
  +4.68085106383e-001
  +4.68085106383e-001
  +4.68085106383e-001
  +4.68085106383e-001
  +4.68085106383e-001
  +4.68085106383e-001
  +4.68085106383e-001
  +4.68085106383e-001
  +4.68085106383e-001
  +4.68085106383e-001
  +4.68085106383e-001
  +4.68085106383e-001
  +4.68085106383e-001
  +4.68085106383e-001
  +4.68085106383e-001
  +4.68085106383e-001
  +4.68085106383e-001
  +4.68085106383e-001
  +4.68085106383e-001
  +4.68085106383e-001
  +4.68085106383e-001
  +4.68085106383e-001
  +4.68085106383e-001
  +4.68085106383e-001
  +4.68085106383e-001
  +4.68085106383e-001
</dep>
